! NPort=2 DATA=4501 NOISE=0 GROUPDELAY=0 COMPLEX_DATAFORMAT=RI
! NumOfBlock=1 NumOfParam=0
!
! .MODEL Smodel S TSTONEFILE=./link_rx/link_rx_s3/lr10000_10000000000000dec_0_1.s2p TYPE=S
!   -- The above .MODEL line can be used for the S element in the netlist.
!
!
# Hz S RI R             50
         10000     -0.263158  4.05954e-006      0.736842 -3.71838e-006      0.736842 -3.71842e-006     -0.263158    8.187e-007
       10046.2     -0.263158  4.07828e-006      0.736842 -3.73554e-006      0.736842 -3.73557e-006     -0.263158  8.22496e-007
       10092.5     -0.263158  4.09709e-006      0.736842  -3.7528e-006      0.736842 -3.75277e-006     -0.263158  8.26328e-007
       10139.1     -0.263158  4.11598e-006      0.736842 -3.77015e-006      0.736842 -3.77013e-006     -0.263158  8.30103e-007
       10185.9     -0.263158  4.13498e-006      0.736842 -3.78754e-006      0.736842 -3.78752e-006     -0.263158  8.33949e-007
       10232.9     -0.263158  4.15409e-006      0.736842   -3.805e-006      0.736842 -3.80503e-006     -0.263158  8.37777e-007
       10280.2     -0.263158  4.17325e-006      0.736842 -3.82258e-006      0.736842 -3.82257e-006     -0.263158  8.41669e-007
       10327.6     -0.263158  4.19251e-006      0.736842 -3.84023e-006      0.736842 -3.84023e-006     -0.263158  8.45532e-007
       10375.3     -0.263158  4.21192e-006      0.736842  -3.8579e-006      0.736842 -3.85792e-006     -0.263158  8.49466e-007
       10423.2     -0.263158  4.23132e-006      0.736842 -3.87574e-006      0.736842 -3.87576e-006     -0.263158  8.53358e-007
       10471.3     -0.263158  4.25084e-006      0.736842 -3.89365e-006      0.736842 -3.89366e-006     -0.263158  8.57288e-007
       10519.6     -0.263158  4.27047e-006      0.736842 -3.91161e-006      0.736842 -3.91156e-006     -0.263158  8.61316e-007
       10568.2     -0.263158  4.29016e-006      0.736842 -3.92968e-006      0.736842 -3.92966e-006     -0.263158  8.65253e-007
         10617     -0.263158  4.30999e-006      0.736842 -3.94779e-006      0.736842 -3.94779e-006     -0.263158  8.69249e-007
         10666     -0.263158  4.32986e-006      0.736842 -3.96604e-006      0.736842 -3.96602e-006     -0.263158  8.73258e-007
       10715.2     -0.263158  4.34985e-006      0.736842 -3.98434e-006      0.736842 -3.98432e-006     -0.263158  8.77288e-007
       10764.7     -0.263158  4.36992e-006      0.736842 -4.00275e-006      0.736842  -4.0027e-006     -0.263158  8.81357e-007
       10814.3     -0.263158  4.39016e-006      0.736842 -4.02115e-006      0.736842 -4.02121e-006     -0.263158  8.85385e-007
       10864.3     -0.263158  4.41038e-006      0.736842 -4.03976e-006      0.736842 -4.03978e-006     -0.263158  8.89468e-007
       10914.4     -0.263158  4.43072e-006      0.736842 -4.05842e-006      0.736842 -4.05841e-006     -0.263158  8.93586e-007
       10964.8     -0.263158  4.45122e-006      0.736842  -4.0771e-006      0.736842 -4.07713e-006     -0.263158   8.9772e-007
       11015.4     -0.263158  4.47172e-006      0.736842 -4.09597e-006      0.736842 -4.09601e-006     -0.263158  9.01809e-007
       11066.2     -0.263158  4.49234e-006      0.736842 -4.11489e-006      0.736842 -4.11487e-006     -0.263158   9.0602e-007
       11117.3     -0.263158  4.51313e-006      0.736842 -4.13383e-006      0.736842 -4.13384e-006     -0.263158  9.10221e-007
       11168.6     -0.263158   4.5339e-006      0.736842 -4.15297e-006      0.736842 -4.15294e-006     -0.263158  9.14398e-007
       11220.2     -0.263158  4.55486e-006      0.736842 -4.17211e-006      0.736842 -4.17211e-006     -0.263158  9.18619e-007
         11272     -0.263158  4.57587e-006      0.736842 -4.19138e-006      0.736842 -4.19137e-006     -0.263158  9.22865e-007
         11324     -0.263158  4.59701e-006      0.736842 -4.21071e-006      0.736842 -4.21067e-006     -0.263158  9.27168e-007
       11376.3     -0.263158  4.61826e-006      0.736842 -4.23011e-006      0.736842 -4.23013e-006     -0.263158  9.31421e-007
       11428.8     -0.263158  4.63954e-006      0.736842 -4.24968e-006      0.736842 -4.24967e-006     -0.263158  9.35704e-007
       11481.5     -0.263158  4.66096e-006      0.736842 -4.26928e-006      0.736842 -4.26927e-006     -0.263158  9.40046e-007
       11534.5     -0.263158  4.68247e-006      0.736842   -4.289e-006      0.736842 -4.28897e-006     -0.263158  9.44385e-007
       11587.8     -0.263158  4.70407e-006      0.736842 -4.30881e-006      0.736842  -4.3088e-006     -0.263158  9.48714e-007
       11641.3     -0.263158  4.72579e-006      0.736842 -4.32869e-006      0.736842 -4.32868e-006     -0.263158  9.53095e-007
         11695     -0.263158  4.74761e-006      0.736842 -4.34866e-006      0.736842 -4.34863e-006     -0.263158  9.57527e-007
         11749     -0.263158  4.76953e-006      0.736842 -4.36873e-006      0.736842 -4.36875e-006     -0.263158  9.61904e-007
       11803.2     -0.263158  4.79155e-006      0.736842 -4.38889e-006      0.736842 -4.38888e-006     -0.263158  9.66379e-007
       11857.7     -0.263158  4.81365e-006      0.736842 -4.40917e-006      0.736842 -4.40919e-006     -0.263158  9.70789e-007
       11912.4     -0.263158   4.8359e-006      0.736842 -4.42948e-006      0.736842 -4.42951e-006     -0.263158    9.753e-007
       11967.4     -0.263158  4.85817e-006      0.736842 -4.44998e-006      0.736842 -4.44992e-006     -0.263158  9.79834e-007
       12022.6     -0.263158  4.88065e-006      0.736842 -4.47047e-006      0.736842 -4.47048e-006     -0.263158  9.84337e-007
       12078.1     -0.263158  4.90318e-006      0.736842  -4.4911e-006      0.736842 -4.49112e-006     -0.263158  9.88879e-007
       12133.9     -0.263158  4.92574e-006      0.736842 -4.51191e-006      0.736842 -4.51184e-006     -0.263158  9.93455e-007
       12189.9     -0.263158  4.94851e-006      0.736842 -4.53269e-006      0.736842 -4.53271e-006     -0.263158  9.97998e-007
       12246.2     -0.263158  4.97134e-006      0.736842 -4.55363e-006      0.736842 -4.55361e-006     -0.263158  1.00263e-006
       12302.7     -0.263158   4.9943e-006      0.736842 -4.57463e-006      0.736842  -4.5746e-006     -0.263158  1.00728e-006
       12359.5     -0.263158  5.01733e-006      0.736842 -4.59577e-006      0.736842 -4.59577e-006     -0.263158  1.01188e-006
       12416.5     -0.263158  5.04051e-006      0.736842 -4.61696e-006      0.736842 -4.61694e-006     -0.263158  1.01659e-006
       12473.8     -0.263158  5.06378e-006      0.736842 -4.63827e-006      0.736842 -4.63827e-006     -0.263158  1.02126e-006
       12531.4     -0.263158  5.08715e-006      0.736842 -4.65968e-006      0.736842 -4.65969e-006     -0.263158  1.02596e-006
       12589.3     -0.263158  5.11063e-006      0.736842 -4.68119e-006      0.736842 -4.68119e-006     -0.263158  1.03071e-006
       12647.4     -0.263158  5.13422e-006      0.736842  -4.7028e-006      0.736842 -4.70281e-006     -0.263158  1.03545e-006
       12705.7     -0.263158  5.15791e-006      0.736842 -4.72452e-006      0.736842 -4.72448e-006     -0.263158  1.04026e-006
       12764.4     -0.263158  5.18173e-006      0.736842 -4.74631e-006      0.736842  -4.7463e-006     -0.263158  1.04506e-006
       12823.3     -0.263158  5.20565e-006      0.736842 -4.76821e-006      0.736842 -4.76824e-006     -0.263158  1.04985e-006
       12882.5     -0.263158  5.22967e-006      0.736842 -4.79024e-006      0.736842 -4.79022e-006     -0.263158  1.05472e-006
         12942     -0.263158  5.25385e-006      0.736842  -4.8123e-006      0.736842 -4.81234e-006     -0.263158  1.05958e-006
       13001.7     -0.263158  5.27807e-006      0.736842 -4.83455e-006      0.736842 -4.83456e-006     -0.263158  1.06447e-006
       13061.7     -0.263158  5.30243e-006      0.736842 -4.85686e-006      0.736842 -4.85684e-006     -0.263158  1.06941e-006
         13122     -0.263158  5.32687e-006      0.736842 -4.87932e-006      0.736842  -4.8793e-006     -0.263158  1.07431e-006
       13182.6     -0.263158   5.3515e-006      0.736842 -4.90179e-006      0.736842 -4.90179e-006     -0.263158   1.0793e-006
       13243.4     -0.263158   5.3762e-006      0.736842 -4.92442e-006      0.736842 -4.92443e-006     -0.263158  1.08426e-006
       13304.5     -0.263158  5.40099e-006      0.736842 -4.94718e-006      0.736842  -4.9472e-006     -0.263158  1.08923e-006
         13366     -0.263158  5.42593e-006      0.736842    -4.97e-006      0.736842 -4.97001e-006     -0.263158  1.09429e-006
       13427.6     -0.263158  5.45098e-006      0.736842 -4.99293e-006      0.736842 -4.99291e-006     -0.263158  1.09938e-006
       13489.6     -0.263158  5.47613e-006      0.736842   -5.016e-006      0.736842 -5.01599e-006     -0.263158  1.10442e-006
       13551.9     -0.263158  5.50142e-006      0.736842 -5.03914e-006      0.736842 -5.03913e-006     -0.263158  1.10952e-006
       13614.4     -0.263158  5.52681e-006      0.736842  -5.0624e-006      0.736842 -5.06238e-006     -0.263158  1.11466e-006
       13677.3     -0.263158  5.55232e-006      0.736842 -5.08577e-006      0.736842 -5.08573e-006     -0.263158  1.11982e-006
       13740.4     -0.263158  5.57795e-006      0.736842 -5.10924e-006      0.736842 -5.10926e-006     -0.263158  1.12493e-006
       13803.8     -0.263158  5.60369e-006      0.736842 -5.13283e-006      0.736842  -5.1328e-006     -0.263158  1.13017e-006
       13867.6     -0.263158  5.62958e-006      0.736842  -5.1565e-006      0.736842 -5.15649e-006     -0.263158  1.13539e-006
       13931.6     -0.263158  5.65554e-006      0.736842 -5.18033e-006      0.736842 -5.18036e-006     -0.263158  1.14056e-006
       13995.9     -0.263158  5.68164e-006      0.736842 -5.20424e-006      0.736842 -5.20423e-006     -0.263158  1.14587e-006
       14060.5     -0.263158  5.70787e-006      0.736842 -5.22826e-006      0.736842 -5.22822e-006     -0.263158  1.15119e-006
       14125.4     -0.263158  5.73422e-006      0.736842 -5.25239e-006      0.736842 -5.25239e-006     -0.263158  1.15646e-006
       14190.6     -0.263158  5.76071e-006      0.736842 -5.27661e-006      0.736842 -5.27663e-006     -0.263158   1.1618e-006
       14256.1     -0.263158   5.7873e-006      0.736842 -5.30097e-006      0.736842 -5.30098e-006     -0.263158  1.16717e-006
       14321.9     -0.263158    5.814e-006      0.736842 -5.32544e-006      0.736842 -5.32546e-006     -0.263158  1.17255e-006
         14388     -0.263158  5.84086e-006      0.736842    -5.35e-006      0.736842    -5.35e-006     -0.263158    1.178e-006
       14454.4     -0.263158  5.86777e-006      0.736842 -5.37474e-006      0.736842 -5.37473e-006     -0.263158   1.1834e-006
       14521.1     -0.263158  5.89486e-006      0.736842 -5.39954e-006      0.736842 -5.39951e-006     -0.263158  1.18889e-006
       14588.1     -0.263158  5.92208e-006      0.736842 -5.42446e-006      0.736842 -5.42446e-006     -0.263158  1.19436e-006
       14655.5     -0.263158  5.94943e-006      0.736842 -5.44948e-006      0.736842 -5.44952e-006     -0.263158  1.19985e-006
       14723.1     -0.263158   5.9769e-006      0.736842 -5.47463e-006      0.736842 -5.47464e-006     -0.263158  1.20542e-006
       14791.1     -0.263158  6.00449e-006      0.736842  -5.4999e-006      0.736842 -5.49994e-006     -0.263158  1.21096e-006
       14859.4     -0.263158  6.03219e-006      0.736842  -5.5253e-006      0.736842  -5.5253e-006     -0.263158  1.21657e-006
       14927.9     -0.263158  6.06003e-006      0.736842  -5.5508e-006      0.736842 -5.55077e-006     -0.263158  1.22222e-006
       14996.8     -0.263158  6.08803e-006      0.736842  -5.5764e-006      0.736842 -5.57641e-006     -0.263158  1.22784e-006
       15066.1     -0.263158  6.11612e-006      0.736842 -5.60215e-006      0.736842 -5.60216e-006     -0.263158   1.2335e-006
       15135.6     -0.263158  6.14434e-006      0.736842 -5.62802e-006      0.736842 -5.62799e-006     -0.263158  1.23922e-006
       15205.5     -0.263158   6.1727e-006      0.736842   -5.654e-006      0.736842 -5.65399e-006     -0.263158  1.24491e-006
       15275.7     -0.263158  6.20119e-006      0.736842 -5.68009e-006      0.736842 -5.68011e-006     -0.263158  1.25064e-006
       15346.2     -0.263158  6.22983e-006      0.736842  -5.7063e-006      0.736842  -5.7063e-006     -0.263158  1.25644e-006
         15417     -0.263158  6.25857e-006      0.736842 -5.73265e-006      0.736842 -5.73263e-006     -0.263158  1.26225e-006
       15488.2     -0.263158  6.28748e-006      0.736842 -5.75909e-006      0.736842 -5.75909e-006     -0.263158  1.26808e-006
       15559.7     -0.263158  6.31649e-006      0.736842 -5.78569e-006      0.736842 -5.78571e-006     -0.263158  1.27389e-006
       15631.5     -0.263158  6.34563e-006      0.736842 -5.81241e-006      0.736842 -5.81242e-006     -0.263158  1.27977e-006
       15703.6     -0.263158  6.37494e-006      0.736842 -5.83922e-006      0.736842 -5.83922e-006     -0.263158   1.2857e-006
       15776.1     -0.263158  6.40432e-006      0.736842 -5.86622e-006      0.736842  -5.8662e-006     -0.263158  1.29162e-006
       15848.9     -0.263158  6.43392e-006      0.736842 -5.89325e-006      0.736842 -5.89326e-006     -0.263158   1.2976e-006
       15922.1     -0.263158  6.46362e-006      0.736842 -5.92045e-006      0.736842 -5.92046e-006     -0.263158  1.30359e-006
       15995.6     -0.263158  6.49345e-006      0.736842 -5.94778e-006      0.736842 -5.94779e-006     -0.263158   1.3096e-006
       16069.4     -0.263158   6.5234e-006      0.736842 -5.97526e-006      0.736842 -5.97525e-006     -0.263158  1.31564e-006
       16143.6     -0.263158  6.55352e-006      0.736842 -6.00283e-006      0.736842  -6.0028e-006     -0.263158  1.32174e-006
       16218.1     -0.263158  6.58379e-006      0.736842 -6.03052e-006      0.736842 -6.03052e-006     -0.263158  1.32782e-006
         16293     -0.263158  6.61417e-006      0.736842 -6.05836e-006      0.736842 -6.05835e-006     -0.263158  1.33396e-006
       16368.2     -0.263158  6.64467e-006      0.736842 -6.08636e-006      0.736842 -6.08633e-006     -0.263158  1.34011e-006
       16443.7     -0.263158  6.67537e-006      0.736842 -6.11442e-006      0.736842 -6.11443e-006     -0.263158  1.34628e-006
       16519.6     -0.263158  6.70619e-006      0.736842 -6.14264e-006      0.736842 -6.14264e-006     -0.263158  1.35251e-006
       16595.9     -0.263158  6.73714e-006      0.736842 -6.17099e-006      0.736842   -6.171e-006     -0.263158  1.35875e-006
       16672.5     -0.263158  6.76824e-006      0.736842 -6.19948e-006      0.736842 -6.19947e-006     -0.263158  1.36503e-006
       16749.4     -0.263158  6.79948e-006      0.736842 -6.22809e-006      0.736842 -6.22809e-006     -0.263158  1.37133e-006
       16826.7     -0.263158  6.83087e-006      0.736842 -6.25684e-006      0.736842 -6.25683e-006     -0.263158  1.37766e-006
       16904.4     -0.263158  6.86237e-006      0.736842 -6.28575e-006      0.736842 -6.28573e-006     -0.263158    1.384e-006
       16982.4     -0.263158  6.89407e-006      0.736842 -6.31474e-006      0.736842 -6.31474e-006     -0.263158   1.3904e-006
       17060.8     -0.263158  6.92587e-006      0.736842  -6.3439e-006      0.736842 -6.34389e-006     -0.263158  1.39681e-006
       17139.6     -0.263158  6.95786e-006      0.736842 -6.37317e-006      0.736842 -6.37316e-006     -0.263158  1.40327e-006
       17218.7     -0.263158  6.98998e-006      0.736842 -6.40258e-006      0.736842 -6.40259e-006     -0.263158  1.40973e-006
       17298.2     -0.263158  7.02222e-006      0.736842 -6.43215e-006      0.736842 -6.43213e-006     -0.263158  1.41625e-006
         17378     -0.263158  7.05466e-006      0.736842 -6.46182e-006      0.736842 -6.46182e-006     -0.263158  1.42279e-006
       17458.2     -0.263158  7.08723e-006      0.736842 -6.49164e-006      0.736842 -6.49165e-006     -0.263158  1.42935e-006
       17538.8     -0.263158  7.11992e-006      0.736842 -6.52162e-006      0.736842 -6.52161e-006     -0.263158  1.43595e-006
       17619.8     -0.263158  7.15278e-006      0.736842 -6.55173e-006      0.736842 -6.55171e-006     -0.263158  1.44259e-006
       17701.1     -0.263158  7.18581e-006      0.736842 -6.58196e-006      0.736842 -6.58194e-006     -0.263158  1.44926e-006
       17782.8     -0.263158  7.21898e-006      0.736842 -6.61234e-006      0.736842 -6.61234e-006     -0.263158  1.45593e-006
       17864.9     -0.263158  7.25229e-006      0.736842 -6.64286e-006      0.736842 -6.64286e-006     -0.263158  1.46265e-006
       17947.3     -0.263158  7.28578e-006      0.736842 -6.67351e-006      0.736842 -6.67353e-006     -0.263158  1.46939e-006
       18030.2     -0.263158  7.31939e-006      0.736842 -6.70434e-006      0.736842 -6.70433e-006     -0.263158  1.47618e-006
       18113.4     -0.263158  7.35317e-006      0.736842 -6.73529e-006      0.736842 -6.73527e-006     -0.263158  1.48299e-006
         18197     -0.263158  7.38713e-006      0.736842 -6.76636e-006      0.736842 -6.76638e-006     -0.263158  1.48982e-006
         18281     -0.263158  7.42122e-006      0.736842  -6.7976e-006      0.736842  -6.7976e-006     -0.263158  1.49671e-006
       18365.4     -0.263158  7.45547e-006      0.736842 -6.82898e-006      0.736842 -6.82897e-006     -0.263158  1.50362e-006
       18450.2     -0.263158  7.48988e-006      0.736842  -6.8605e-006      0.736842 -6.86048e-006     -0.263158  1.51058e-006
       18535.3     -0.263158  7.52448e-006      0.736842 -6.89215e-006      0.736842 -6.89215e-006     -0.263158  1.51755e-006
       18620.9     -0.263158   7.5592e-006      0.736842 -6.92396e-006      0.736842 -6.92396e-006     -0.263158  1.52455e-006
       18706.8     -0.263158   7.5941e-006      0.736842 -6.95591e-006      0.736842 -6.95592e-006     -0.263158  1.53159e-006
       18793.2     -0.263158  7.62914e-006      0.736842 -6.98803e-006      0.736842 -6.98804e-006     -0.263158  1.53865e-006
       18879.9     -0.263158  7.66434e-006      0.736842 -7.02031e-006      0.736842 -7.02027e-006     -0.263158  1.54577e-006
       18967.1     -0.263158  7.69975e-006      0.736842 -7.05268e-006      0.736842 -7.05267e-006     -0.263158  1.55291e-006
       19054.6     -0.263158  7.73527e-006      0.736842 -7.08526e-006      0.736842 -7.08524e-006     -0.263158  1.56007e-006
       19142.6     -0.263158  7.77098e-006      0.736842 -7.11795e-006      0.736842 -7.11794e-006     -0.263158  1.56727e-006
       19230.9     -0.263158  7.80683e-006      0.736842 -7.15082e-006      0.736842 -7.15081e-006     -0.263158  1.57449e-006
       19319.7     -0.263158  7.84287e-006      0.736842 -7.18382e-006      0.736842  -7.1838e-006     -0.263158  1.58177e-006
       19408.9     -0.263158  7.87908e-006      0.736842 -7.21697e-006      0.736842 -7.21698e-006     -0.263158  1.58906e-006
       19498.4     -0.263158  7.91543e-006      0.736842  -7.2503e-006      0.736842 -7.25028e-006     -0.263158   1.5964e-006
       19588.4     -0.263158  7.95198e-006      0.736842 -7.28376e-006      0.736842 -7.28377e-006     -0.263158  1.60374e-006
       19678.9     -0.263158   7.9887e-006      0.736842 -7.31736e-006      0.736842 -7.31736e-006     -0.263158  1.61118e-006
       19769.7     -0.263158  8.02556e-006      0.736842 -7.35115e-006      0.736842 -7.35114e-006     -0.263158  1.61861e-006
       19860.9     -0.263158  8.06262e-006      0.736842 -7.38507e-006      0.736842 -7.38508e-006     -0.263158  1.62607e-006
       19952.6     -0.263158  8.09984e-006      0.736842 -7.41915e-006      0.736842 -7.41918e-006     -0.263158  1.63356e-006
       20044.7     -0.263158  8.13721e-006      0.736842 -7.45341e-006      0.736842 -7.45341e-006     -0.263158  1.64112e-006
       20137.2     -0.263158  8.17478e-006      0.736842 -7.48781e-006      0.736842 -7.48783e-006     -0.263158  1.64868e-006
       20230.2     -0.263158  8.21249e-006      0.736842 -7.52239e-006      0.736842 -7.52238e-006     -0.263158   1.6563e-006
       20323.6     -0.263158  8.25042e-006      0.736842 -7.55709e-006      0.736842 -7.55709e-006     -0.263158  1.66396e-006
