! NPort=2 DATA=4501 NOISE=0 GROUPDELAY=0 COMPLEX_DATAFORMAT=RI
! NumOfBlock=1 NumOfParam=0
!
! .MODEL Smodel S TSTONEFILE=./link_rx/link_rx_s3/lr10000_10000000000000dec_2_3.s2p TYPE=S
!   -- The above .MODEL line can be used for the S element in the netlist.
!
!
# Hz S RI R             50
         10000     -0.263158  4.05953e-006      0.736842 -3.71839e-006      0.736842 -3.71838e-006     -0.263158   8.1874e-007
       10046.2     -0.263158  4.07825e-006      0.736842 -3.73557e-006      0.736842 -3.73556e-006     -0.263158  8.22499e-007
       10092.5     -0.263158  4.09709e-006      0.736842 -3.75279e-006      0.736842 -3.75281e-006     -0.263158  8.26288e-007
       10139.1     -0.263158  4.11599e-006      0.736842 -3.77014e-006      0.736842 -3.77015e-006     -0.263158  8.30087e-007
       10185.9     -0.263158    4.135e-006      0.736842 -3.78753e-006      0.736842 -3.78752e-006     -0.263158  8.33955e-007
       10232.9     -0.263158  4.15409e-006      0.736842   -3.805e-006      0.736842   -3.805e-006     -0.263158    8.378e-007
       10280.2     -0.263158  4.17323e-006      0.736842  -3.8226e-006      0.736842 -3.82259e-006     -0.263158  8.41645e-007
       10327.6     -0.263158  4.19252e-006      0.736842 -3.84021e-006      0.736842 -3.84019e-006     -0.263158   8.4557e-007
       10375.3     -0.263158  4.21184e-006      0.736842 -3.85797e-006      0.736842 -3.85794e-006     -0.263158   8.4945e-007
       10423.2     -0.263158   4.2313e-006      0.736842 -3.87576e-006      0.736842 -3.87573e-006     -0.263158  8.53391e-007
       10471.3     -0.263158  4.25089e-006      0.736842 -3.89359e-006      0.736842 -3.89365e-006     -0.263158  8.57298e-007
       10519.6     -0.263158  4.27048e-006      0.736842  -3.9116e-006      0.736842 -3.91162e-006     -0.263158  8.61256e-007
       10568.2     -0.263158  4.29018e-006      0.736842 -3.92967e-006      0.736842 -3.92967e-006     -0.263158  8.65242e-007
         10617     -0.263158     4.31e-006      0.736842 -3.94778e-006      0.736842  -3.9478e-006     -0.263158  8.69245e-007
         10666     -0.263158  4.32984e-006      0.736842 -3.96606e-006      0.736842 -3.96603e-006     -0.263158  8.73245e-007
       10715.2     -0.263158  4.34985e-006      0.736842 -3.98434e-006      0.736842 -3.98432e-006     -0.263158  8.77294e-007
       10764.7     -0.263158  4.36996e-006      0.736842  -4.0027e-006      0.736842 -4.00277e-006     -0.263158   8.8128e-007
       10814.3     -0.263158  4.39011e-006      0.736842  -4.0212e-006      0.736842 -4.02121e-006     -0.263158  8.85389e-007
       10864.3     -0.263158  4.41038e-006      0.736842 -4.03975e-006      0.736842 -4.03974e-006     -0.263158  8.89508e-007
       10914.4     -0.263158  4.43068e-006      0.736842 -4.05846e-006      0.736842  -4.0584e-006     -0.263158  8.93599e-007
       10964.8     -0.263158  4.45116e-006      0.736842 -4.07716e-006      0.736842 -4.07712e-006     -0.263158  8.97738e-007
       11015.4     -0.263158  4.47169e-006      0.736842 -4.09599e-006      0.736842 -4.09595e-006     -0.263158  9.01866e-007
       11066.2     -0.263158  4.49238e-006      0.736842 -4.11485e-006      0.736842 -4.11482e-006     -0.263158  9.06067e-007
       11117.3     -0.263158  4.51311e-006      0.736842 -4.13385e-006      0.736842 -4.13388e-006     -0.263158  9.10181e-007
       11168.6     -0.263158  4.53396e-006      0.736842 -4.15291e-006      0.736842 -4.15295e-006     -0.263158  9.14394e-007
       11220.2     -0.263158  4.55484e-006      0.736842 -4.17213e-006      0.736842 -4.17212e-006     -0.263158  9.18615e-007
         11272     -0.263158  4.57589e-006      0.736842 -4.19136e-006      0.736842 -4.19134e-006     -0.263158  9.22886e-007
         11324     -0.263158  4.59701e-006      0.736842 -4.21071e-006      0.736842 -4.21072e-006     -0.263158  9.27119e-007
       11376.3     -0.263158   4.6182e-006      0.736842 -4.23017e-006      0.736842 -4.23016e-006     -0.263158  9.31388e-007
       11428.8     -0.263158  4.63957e-006      0.736842 -4.24965e-006      0.736842 -4.24967e-006     -0.263158  9.35704e-007
       11481.5     -0.263158    4.661e-006      0.736842 -4.26925e-006      0.736842 -4.26929e-006     -0.263158  9.40023e-007
       11534.5     -0.263158  4.68248e-006      0.736842 -4.28899e-006      0.736842 -4.28893e-006     -0.263158  9.44428e-007
       11587.8     -0.263158  4.70414e-006      0.736842 -4.30874e-006      0.736842 -4.30875e-006     -0.263158  9.48763e-007
       11641.3     -0.263158  4.72581e-006      0.736842 -4.32867e-006      0.736842 -4.32864e-006     -0.263158  9.53138e-007
         11695     -0.263158  4.74765e-006      0.736842 -4.34862e-006      0.736842 -4.34865e-006     -0.263158  9.57509e-007
         11749     -0.263158   4.7695e-006      0.736842 -4.36876e-006      0.736842 -4.36873e-006     -0.263158  9.61918e-007
       11803.2     -0.263158  4.79154e-006      0.736842  -4.3889e-006      0.736842 -4.38888e-006     -0.263158  9.66379e-007
       11857.7     -0.263158  4.81365e-006      0.736842 -4.40917e-006      0.736842  -4.4092e-006     -0.263158  9.70776e-007
       11912.4     -0.263158  4.83584e-006      0.736842 -4.42954e-006      0.736842 -4.42952e-006     -0.263158  9.75293e-007
       11967.4     -0.263158  4.85819e-006      0.736842 -4.44996e-006      0.736842 -4.44991e-006     -0.263158  9.79843e-007
       12022.6     -0.263158   4.8806e-006      0.736842 -4.47051e-006      0.736842 -4.47047e-006     -0.263158  9.84346e-007
       12078.1     -0.263158  4.90314e-006      0.736842 -4.49114e-006      0.736842 -4.49112e-006     -0.263158  9.88876e-007
       12133.9     -0.263158   4.9258e-006      0.736842 -4.51184e-006      0.736842 -4.51188e-006     -0.263158  9.93415e-007
       12189.9     -0.263158  4.94852e-006      0.736842 -4.53268e-006      0.736842 -4.53267e-006     -0.263158  9.98028e-007
       12246.2     -0.263158  4.97136e-006      0.736842 -4.55361e-006      0.736842 -4.55359e-006     -0.263158  1.00264e-006
       12302.7     -0.263158  4.99432e-006      0.736842 -4.57461e-006      0.736842 -4.57462e-006     -0.263158  1.00726e-006
       12359.5     -0.263158  5.01738e-006      0.736842 -4.59573e-006      0.736842 -4.59575e-006     -0.263158   1.0119e-006
       12416.5     -0.263158  5.04052e-006      0.736842 -4.61695e-006      0.736842 -4.61693e-006     -0.263158  1.01659e-006
       12473.8     -0.263158  5.06381e-006      0.736842 -4.63824e-006      0.736842 -4.63827e-006     -0.263158  1.02126e-006
       12531.4     -0.263158  5.08714e-006      0.736842 -4.65969e-006      0.736842 -4.65967e-006     -0.263158  1.02598e-006
       12589.3     -0.263158  5.11065e-006      0.736842 -4.68117e-006      0.736842 -4.68118e-006     -0.263158  1.03071e-006
       12647.4     -0.263158  5.13422e-006      0.736842 -4.70279e-006      0.736842 -4.70275e-006     -0.263158  1.03551e-006
       12705.7     -0.263158  5.15795e-006      0.736842 -4.72447e-006      0.736842 -4.72452e-006     -0.263158  1.04023e-006
       12764.4     -0.263158  5.18171e-006      0.736842 -4.74633e-006      0.736842 -4.74631e-006     -0.263158  1.04505e-006
       12823.3     -0.263158  5.20569e-006      0.736842 -4.76818e-006      0.736842 -4.76822e-006     -0.263158  1.04987e-006
       12882.5     -0.263158  5.22969e-006      0.736842 -4.79021e-006      0.736842  -4.7902e-006     -0.263158  1.05474e-006
         12942     -0.263158  5.25382e-006      0.736842 -4.81233e-006      0.736842 -4.81233e-006     -0.263158  1.05959e-006
       13001.7     -0.263158  5.27808e-006      0.736842 -4.83454e-006      0.736842 -4.83455e-006     -0.263158  1.06447e-006
       13061.7     -0.263158  5.30247e-006      0.736842 -4.85683e-006      0.736842 -4.85685e-006     -0.263158   1.0694e-006
         13122     -0.263158   5.3269e-006      0.736842 -4.87929e-006      0.736842  -4.8793e-006     -0.263158  1.07431e-006
       13182.6     -0.263158   5.3515e-006      0.736842 -4.90179e-006      0.736842 -4.90181e-006     -0.263158  1.07928e-006
       13243.4     -0.263158  5.37619e-006      0.736842 -4.92444e-006      0.736842 -4.92442e-006     -0.263158  1.08427e-006
       13304.5     -0.263158  5.40101e-006      0.736842 -4.94715e-006      0.736842 -4.94715e-006     -0.263158  1.08929e-006
         13366     -0.263158  5.42595e-006      0.736842 -4.96998e-006      0.736842 -4.96998e-006     -0.263158  1.09432e-006
       13427.6     -0.263158    5.451e-006      0.736842 -4.99292e-006      0.736842 -4.99289e-006     -0.263158  1.09939e-006
       13489.6     -0.263158  5.47614e-006      0.736842 -5.01599e-006      0.736842 -5.01599e-006     -0.263158  1.10442e-006
       13551.9     -0.263158  5.50145e-006      0.736842 -5.03911e-006      0.736842 -5.03909e-006     -0.263158  1.10957e-006
       13614.4     -0.263158  5.52682e-006      0.736842 -5.06239e-006      0.736842 -5.06235e-006     -0.263158  1.11469e-006
       13677.3     -0.263158  5.55237e-006      0.736842 -5.08572e-006      0.736842 -5.08574e-006     -0.263158  1.11981e-006
       13740.4     -0.263158  5.57797e-006      0.736842 -5.10922e-006      0.736842 -5.10922e-006     -0.263158  1.12498e-006
       13803.8     -0.263158  5.60374e-006      0.736842 -5.13278e-006      0.736842 -5.13279e-006     -0.263158  1.13018e-006
       13867.6     -0.263158  5.62958e-006      0.736842 -5.15649e-006      0.736842 -5.15647e-006     -0.263158  1.13541e-006
       13931.6     -0.263158  5.65556e-006      0.736842  -5.1803e-006      0.736842 -5.18028e-006     -0.263158  1.14064e-006
       13995.9     -0.263158  5.68166e-006      0.736842 -5.20422e-006      0.736842 -5.20419e-006     -0.263158   1.1459e-006
       14060.5     -0.263158  5.70791e-006      0.736842 -5.22821e-006      0.736842 -5.22823e-006     -0.263158  1.15118e-006
       14125.4     -0.263158  5.73425e-006      0.736842 -5.25236e-006      0.736842 -5.25236e-006     -0.263158   1.1565e-006
       14190.6     -0.263158  5.76071e-006      0.736842  -5.2766e-006      0.736842 -5.27659e-006     -0.263158  1.16184e-006
       14256.1     -0.263158   5.7873e-006      0.736842 -5.30096e-006      0.736842 -5.30098e-006     -0.263158  1.16717e-006
       14321.9     -0.263158    5.814e-006      0.736842 -5.32545e-006      0.736842 -5.32543e-006     -0.263158  1.17258e-006
         14388     -0.263158  5.84087e-006      0.736842 -5.34999e-006      0.736842 -5.35003e-006     -0.263158  1.17798e-006
       14454.4     -0.263158   5.8678e-006      0.736842 -5.37472e-006      0.736842  -5.3747e-006     -0.263158  1.18343e-006
       14521.1     -0.263158  5.89488e-006      0.736842 -5.39953e-006      0.736842 -5.39953e-006     -0.263158  1.18888e-006
       14588.1     -0.263158   5.9221e-006      0.736842 -5.42444e-006      0.736842 -5.42446e-006     -0.263158  1.19435e-006
       14655.5     -0.263158  5.94942e-006      0.736842 -5.44949e-006      0.736842 -5.44948e-006     -0.263158  1.19988e-006
       14723.1     -0.263158  5.97687e-006      0.736842 -5.47466e-006      0.736842 -5.47464e-006     -0.263158  1.20542e-006
       14791.1     -0.263158  6.00445e-006      0.736842 -5.49994e-006      0.736842 -5.49992e-006     -0.263158  1.21097e-006
       14859.4     -0.263158  6.03217e-006      0.736842 -5.52532e-006      0.736842 -5.52528e-006     -0.263158  1.21659e-006
       14927.9     -0.263158  6.06004e-006      0.736842  -5.5508e-006      0.736842 -5.55079e-006     -0.263158   1.2222e-006
       14996.8     -0.263158  6.08802e-006      0.736842 -5.57641e-006      0.736842 -5.57642e-006     -0.263158  1.22783e-006
       15066.1     -0.263158  6.11612e-006      0.736842 -5.60215e-006      0.736842 -5.60218e-006     -0.263158  1.23347e-006
       15135.6     -0.263158  6.14436e-006      0.736842   -5.628e-006      0.736842 -5.62801e-006     -0.263158   1.2392e-006
       15205.5     -0.263158   6.1727e-006      0.736842   -5.654e-006      0.736842 -5.65402e-006     -0.263158  1.24489e-006
       15275.7     -0.263158  6.20118e-006      0.736842  -5.6801e-006      0.736842 -5.68008e-006     -0.263158  1.25067e-006
       15346.2     -0.263158  6.22978e-006      0.736842 -5.70635e-006      0.736842 -5.70632e-006     -0.263158  1.25643e-006
         15417     -0.263158  6.25854e-006      0.736842 -5.73269e-006      0.736842 -5.73268e-006     -0.263158   1.2622e-006
       15488.2     -0.263158  6.28745e-006      0.736842 -5.75912e-006      0.736842 -5.75911e-006     -0.263158  1.26805e-006
       15559.7     -0.263158  6.31648e-006      0.736842  -5.7857e-006      0.736842 -5.78568e-006     -0.263158  1.27392e-006
       15631.5     -0.263158  6.34566e-006      0.736842 -5.81238e-006      0.736842 -5.81237e-006     -0.263158  1.27982e-006
       15703.6     -0.263158  6.37495e-006      0.736842 -5.83921e-006      0.736842  -5.8392e-006     -0.263158  1.28573e-006
       15776.1     -0.263158  6.40436e-006      0.736842 -5.86617e-006      0.736842 -5.86617e-006     -0.263158  1.29165e-006
       15848.9     -0.263158  6.43394e-006      0.736842 -5.89323e-006      0.736842 -5.89325e-006     -0.263158   1.2976e-006
       15922.1     -0.263158  6.46363e-006      0.736842 -5.92044e-006      0.736842 -5.92044e-006     -0.263158   1.3036e-006
       15995.6     -0.263158  6.49349e-006      0.736842 -5.94774e-006      0.736842 -5.94776e-006     -0.263158  1.30963e-006
       16069.4     -0.263158  6.52344e-006      0.736842 -5.97522e-006      0.736842 -5.97525e-006     -0.263158  1.31564e-006
       16143.6     -0.263158  6.55353e-006      0.736842 -6.00282e-006      0.736842 -6.00282e-006     -0.263158  1.32172e-006
       16218.1     -0.263158  6.58381e-006      0.736842  -6.0305e-006      0.736842 -6.03051e-006     -0.263158  1.32784e-006
         16293     -0.263158  6.61417e-006      0.736842 -6.05836e-006      0.736842 -6.05836e-006     -0.263158  1.33395e-006
       16368.2     -0.263158  6.64469e-006      0.736842 -6.08634e-006      0.736842 -6.08633e-006     -0.263158  1.34011e-006
       16443.7     -0.263158  6.67537e-006      0.736842 -6.11442e-006      0.736842 -6.11444e-006     -0.263158  1.34627e-006
       16519.6     -0.263158  6.70617e-006      0.736842 -6.14265e-006      0.736842 -6.14264e-006     -0.263158  1.35251e-006
       16595.9     -0.263158  6.73714e-006      0.736842 -6.17099e-006      0.736842 -6.17098e-006     -0.263158  1.35877e-006
       16672.5     -0.263158  6.76825e-006      0.736842 -6.19947e-006      0.736842 -6.19948e-006     -0.263158  1.36502e-006
       16749.4     -0.263158  6.79947e-006      0.736842  -6.2281e-006      0.736842 -6.22809e-006     -0.263158  1.37133e-006
       16826.7     -0.263158  6.83086e-006      0.736842 -6.25685e-006      0.736842 -6.25683e-006     -0.263158  1.37766e-006
       16904.4     -0.263158  6.86239e-006      0.736842 -6.28573e-006      0.736842 -6.28571e-006     -0.263158  1.38402e-006
       16982.4     -0.263158  6.89407e-006      0.736842 -6.31474e-006      0.736842 -6.31475e-006     -0.263158  1.39039e-006
       17060.8     -0.263158  6.92591e-006      0.736842 -6.34387e-006      0.736842 -6.34386e-006     -0.263158  1.39684e-006
       17139.6     -0.263158  6.95787e-006      0.736842 -6.37315e-006      0.736842 -6.37316e-006     -0.263158  1.40327e-006
       17218.7     -0.263158  6.98997e-006      0.736842 -6.40259e-006      0.736842 -6.40256e-006     -0.263158  1.40976e-006
       17298.2     -0.263158  7.02225e-006      0.736842 -6.43212e-006      0.736842 -6.43212e-006     -0.263158  1.41626e-006
         17378     -0.263158  7.05467e-006      0.736842 -6.46181e-006      0.736842 -6.46183e-006     -0.263158  1.42278e-006
       17458.2     -0.263158  7.08723e-006      0.736842 -6.49164e-006      0.736842 -6.49165e-006     -0.263158  1.42935e-006
       17538.8     -0.263158  7.11993e-006      0.736842 -6.52162e-006      0.736842 -6.52161e-006     -0.263158  1.43596e-006
       17619.8     -0.263158   7.1528e-006      0.736842 -6.55171e-006      0.736842 -6.55172e-006     -0.263158  1.44258e-006
       17701.1     -0.263158  7.18579e-006      0.736842 -6.58198e-006      0.736842 -6.58197e-006     -0.263158  1.44922e-006
       17782.8     -0.263158  7.21897e-006      0.736842 -6.61235e-006      0.736842 -6.61236e-006     -0.263158  1.45591e-006
       17864.9     -0.263158   7.2523e-006      0.736842 -6.64286e-006      0.736842 -6.64287e-006     -0.263158  1.46264e-006
       17947.3     -0.263158  7.28577e-006      0.736842 -6.67352e-006      0.736842 -6.67353e-006     -0.263158  1.46939e-006
       18030.2     -0.263158  7.31942e-006      0.736842 -6.70431e-006      0.736842 -6.70433e-006     -0.263158  1.47618e-006
       18113.4     -0.263158  7.35319e-006      0.736842 -6.73527e-006      0.736842 -6.73527e-006     -0.263158    1.483e-006
         18197     -0.263158  7.38713e-006      0.736842 -6.76636e-006      0.736842 -6.76636e-006     -0.263158  1.48984e-006
         18281     -0.263158  7.42124e-006      0.736842 -6.79758e-006      0.736842 -6.79757e-006     -0.263158  1.49674e-006
       18365.4     -0.263158  7.45548e-006      0.736842 -6.82897e-006      0.736842 -6.82897e-006     -0.263158  1.50362e-006
       18450.2     -0.263158  7.48987e-006      0.736842 -6.86051e-006      0.736842  -6.8605e-006     -0.263158  1.51056e-006
       18535.3     -0.263158  7.52446e-006      0.736842 -6.89217e-006      0.736842 -6.89217e-006     -0.263158  1.51753e-006
       18620.9     -0.263158   7.5592e-006      0.736842 -6.92397e-006      0.736842 -6.92396e-006     -0.263158  1.52455e-006
       18706.8     -0.263158  7.59408e-006      0.736842 -6.95594e-006      0.736842 -6.95596e-006     -0.263158  1.53155e-006
       18793.2     -0.263158  7.62914e-006      0.736842 -6.98804e-006      0.736842 -6.98805e-006     -0.263158  1.53864e-006
       18879.9     -0.263158  7.66435e-006      0.736842 -7.02029e-006      0.736842 -7.02028e-006     -0.263158  1.54577e-006
       18967.1     -0.263158  7.69973e-006      0.736842 -7.05269e-006      0.736842 -7.05272e-006     -0.263158  1.55287e-006
       19054.6     -0.263158  7.73528e-006      0.736842 -7.08524e-006      0.736842 -7.08526e-006     -0.263158  1.56005e-006
       19142.6     -0.263158  7.77099e-006      0.736842 -7.11794e-006      0.736842 -7.11794e-006     -0.263158  1.56727e-006
       19230.9     -0.263158  7.80686e-006      0.736842  -7.1508e-006      0.736842 -7.15083e-006     -0.263158  1.57447e-006
       19319.7     -0.263158  7.84289e-006      0.736842 -7.18381e-006      0.736842  -7.1838e-006     -0.263158  1.58177e-006
       19408.9     -0.263158  7.87907e-006      0.736842 -7.21699e-006      0.736842 -7.21697e-006     -0.263158  1.58906e-006
       19498.4     -0.263158  7.91544e-006      0.736842  -7.2503e-006      0.736842 -7.25029e-006     -0.263158  1.59639e-006
       19588.4     -0.263158  7.95198e-006      0.736842 -7.28376e-006      0.736842 -7.28376e-006     -0.263158  1.60376e-006
       19678.9     -0.263158  7.98868e-006      0.736842 -7.31738e-006      0.736842 -7.31737e-006     -0.263158  1.61117e-006
       19769.7     -0.263158  8.02557e-006      0.736842 -7.35115e-006      0.736842 -7.35115e-006     -0.263158   1.6186e-006
       19860.9     -0.263158  8.06261e-006      0.736842 -7.38508e-006      0.736842 -7.38508e-006     -0.263158  1.62607e-006
       19952.6     -0.263158  8.09983e-006      0.736842 -7.41916e-006      0.736842 -7.41916e-006     -0.263158  1.63359e-006
       20044.7     -0.263158   8.1372e-006      0.736842 -7.45342e-006      0.736842 -7.45343e-006     -0.263158  1.64111e-006
       20137.2     -0.263158  8.17478e-006      0.736842 -7.48781e-006      0.736842 -7.48782e-006     -0.263158  1.64869e-006
       20230.2     -0.263158   8.2125e-006      0.736842 -7.52238e-006      0.736842 -7.52239e-006     -0.263158  1.65629e-006
       20323.6     -0.263158  8.25041e-006      0.736842  -7.5571e-006      0.736842 -7.55709e-006     -0.263158  1.66396e-006
