! NPort=2 DATA=4501 NOISE=0 GROUPDELAY=0 COMPLEX_DATAFORMAT=RI
! NumOfBlock=1 NumOfParam=0
!
! .MODEL Smodel S TSTONEFILE=./link_rx/link_rx_s3/lr10000_10000000000000dec_2_5.s2p TYPE=S
!   -- The above .MODEL line can be used for the S element in the netlist.
!
!
# Hz S RI R             50
         10000      0.166667  6.07001e-011 -1.38636e-008 -6.09353e-007 -1.38635e-008 -6.09353e-007            -1   1.2315e-005
       10046.2      0.166667 -2.82604e-011 -1.38637e-008 -6.12166e-007 -1.38636e-008 -6.12168e-007            -1  1.23719e-005
       10092.5      0.166667  8.98222e-012 -1.38638e-008 -6.14992e-007 -1.38638e-008 -6.14985e-007            -1   1.2429e-005
       10139.1      0.166667 -7.86906e-011 -1.38639e-008  -6.1783e-007 -1.38639e-008 -6.17831e-007            -1  1.24864e-005
       10185.9      0.166667  2.35104e-011  -1.3864e-008 -6.20682e-007  -1.3864e-008 -6.20679e-007            -1   1.2544e-005
       10232.9      0.166667  2.55603e-011 -1.38641e-008 -6.23547e-007  -1.3864e-008 -6.23548e-007            -1  1.26019e-005
       10280.2      0.166667 -7.43062e-011 -1.38641e-008 -6.26425e-007 -1.38643e-008 -6.26427e-007            -1  1.26601e-005
       10327.6      0.166667   1.9247e-011 -1.38642e-008 -6.29317e-007 -1.38643e-008 -6.29318e-007            -1  1.27185e-005
       10375.3      0.166667  1.08898e-011 -1.38643e-008 -6.32222e-007 -1.38643e-008 -6.32219e-007            -1  1.27772e-005
       10423.2      0.166667  2.79545e-011 -1.38644e-008  -6.3514e-007 -1.38643e-008  -6.3514e-007            -1  1.28362e-005
       10471.3      0.166667 -3.83131e-012 -1.38645e-008 -6.38071e-007 -1.38644e-008 -6.38066e-007            -1  1.28954e-005
       10519.6      0.166667 -2.25683e-011 -1.38646e-008 -6.41017e-007 -1.38645e-008 -6.41015e-007            -1  1.29549e-005
       10568.2      0.166667 -3.00218e-011 -1.38647e-008 -6.43975e-007 -1.38647e-008  -6.4398e-007            -1  1.30147e-005
         10617      0.166667  4.27812e-011 -1.38648e-008 -6.46948e-007 -1.38648e-008 -6.46946e-007            -1  1.30748e-005
         10666      0.166667   -6.412e-011 -1.38649e-008 -6.49934e-007 -1.38648e-008 -6.49934e-007            -1  1.31352e-005
       10715.2      0.166667  6.50696e-012  -1.3865e-008 -6.52934e-007  -1.3865e-008 -6.52934e-007            -1  1.31958e-005
       10764.7      0.166667 -2.29832e-011 -1.38651e-008 -6.55948e-007 -1.38651e-008 -6.55952e-007            -1  1.32567e-005
       10814.3      0.166667  1.54165e-011 -1.38652e-008 -6.58976e-007 -1.38652e-008 -6.58977e-007            -1  1.33179e-005
       10864.3      0.166667 -3.14621e-013 -1.38653e-008 -6.62017e-007 -1.38654e-008 -6.62021e-007            -1  1.33794e-005
       10914.4      0.166667 -4.01095e-011 -1.38654e-008 -6.65073e-007 -1.38653e-008 -6.65081e-007            -1  1.34411e-005
       10964.8      0.166667 -1.55419e-011 -1.38655e-008 -6.68143e-007 -1.38654e-008 -6.68147e-007            -1  1.35032e-005
       11015.4      0.166667 -6.45485e-011 -1.38656e-008 -6.71227e-007 -1.38656e-008 -6.71231e-007            -1  1.35655e-005
       11066.2      0.166667  6.39954e-011 -1.38657e-008 -6.74325e-007 -1.38657e-008 -6.74329e-007            -1  1.36281e-005
       11117.3      0.166667 -3.84215e-011 -1.38658e-008 -6.77438e-007 -1.38657e-008 -6.77435e-007            -1   1.3691e-005
       11168.6      0.166667   3.1178e-012 -1.38659e-008 -6.80565e-007 -1.38658e-008 -6.80563e-007            -1  1.37542e-005
       11220.2      0.166667 -4.48203e-011  -1.3866e-008 -6.83706e-007  -1.3866e-008 -6.83697e-007            -1  1.38177e-005
         11272      0.166667 -2.66078e-011 -1.38661e-008 -6.86862e-007  -1.3866e-008 -6.86857e-007            -1  1.38815e-005
         11324      0.166667 -2.35907e-011 -1.38662e-008 -6.90032e-007 -1.38661e-008 -6.90027e-007            -1  1.39456e-005
       11376.3      0.166667 -6.93665e-011 -1.38663e-008 -6.93217e-007 -1.38663e-008 -6.93216e-007            -1  1.40099e-005
       11428.8      0.166667  2.70621e-011 -1.38664e-008 -6.96417e-007 -1.38664e-008 -6.96414e-007            -1  1.40746e-005
       11481.5      0.166667  6.05569e-011 -1.38665e-008 -6.99631e-007 -1.38665e-008 -6.99638e-007            -1  1.41396e-005
       11534.5      0.166667   6.4722e-011 -1.38666e-008 -7.02861e-007 -1.38666e-008 -7.02868e-007            -1  1.42048e-005
       11587.8      0.166667  7.31616e-011 -1.38668e-008 -7.06105e-007 -1.38667e-008 -7.06106e-007            -1  1.42704e-005
       11641.3      0.166667   4.3436e-011 -1.38669e-008 -7.09364e-007 -1.38669e-008 -7.09363e-007            -1  1.43363e-005
         11695      0.166667   2.6834e-011  -1.3867e-008 -7.12639e-007  -1.3867e-008 -7.12634e-007            -1  1.44024e-005
         11749      0.166667 -5.09163e-011 -1.38671e-008 -7.15928e-007 -1.38671e-008 -7.15929e-007            -1  1.44689e-005
       11803.2      0.166667  1.17931e-011 -1.38672e-008 -7.19232e-007 -1.38672e-008 -7.19234e-007            -1  1.45357e-005
       11857.7      0.166667  -7.8599e-011 -1.38673e-008 -7.22552e-007 -1.38674e-008 -7.22549e-007            -1  1.46028e-005
       11912.4      0.166667 -2.85243e-011 -1.38674e-008 -7.25887e-007 -1.38675e-008 -7.25882e-007            -1  1.46702e-005
       11967.4      0.166667   4.8839e-011 -1.38676e-008 -7.29238e-007 -1.38675e-008 -7.29239e-007            -1  1.47379e-005
       12022.6      0.166667 -3.61697e-013 -1.38677e-008 -7.32604e-007 -1.38677e-008 -7.32606e-007            -1  1.48059e-005
       12078.1      0.166667  2.49176e-012 -1.38678e-008 -7.35986e-007 -1.38678e-008 -7.35986e-007            -1  1.48743e-005
       12133.9      0.166667 -3.27886e-011 -1.38679e-008 -7.39383e-007 -1.38679e-008 -7.39385e-007            -1  1.49429e-005
       12189.9      0.166667 -3.62851e-012 -1.38681e-008 -7.42796e-007 -1.38679e-008 -7.42793e-007            -1  1.50119e-005
       12246.2      0.166667  1.55261e-012 -1.38682e-008 -7.46224e-007 -1.38682e-008 -7.46223e-007            -1  1.50812e-005
       12302.7      0.166667  4.64229e-011 -1.38683e-008 -7.49669e-007 -1.38683e-008  -7.4967e-007            -1  1.51508e-005
       12359.5      0.166667  1.24992e-011 -1.38684e-008 -7.53129e-007 -1.38684e-008 -7.53129e-007            -1  1.52207e-005
       12416.5      0.166667  2.00403e-011 -1.38686e-008 -7.56605e-007 -1.38685e-008 -7.56607e-007            -1   1.5291e-005
       12473.8      0.166667 -1.22992e-011 -1.38687e-008 -7.60097e-007 -1.38686e-008 -7.60101e-007            -1  1.53616e-005
       12531.4      0.166667 -2.79249e-011 -1.38688e-008 -7.63606e-007 -1.38688e-008 -7.63606e-007            -1  1.54325e-005
       12589.3      0.166667  1.38414e-011  -1.3869e-008 -7.67131e-007 -1.38689e-008 -7.67133e-007            -1  1.55037e-005
       12647.4      0.166667  1.22012e-011 -1.38691e-008 -7.70672e-007  -1.3869e-008 -7.70669e-007            -1  1.55753e-005
       12705.7      0.166667 -1.51572e-011 -1.38692e-008 -7.74229e-007 -1.38692e-008 -7.74232e-007            -1  1.56472e-005
       12764.4      0.166667 -6.82301e-011 -1.38694e-008 -7.77802e-007 -1.38693e-008 -7.77804e-007            -1  1.57194e-005
       12823.3      0.166667  2.09901e-011 -1.38695e-008 -7.81393e-007 -1.38696e-008 -7.81391e-007            -1  1.57919e-005
       12882.5      0.166667  8.45955e-012 -1.38696e-008 -7.84999e-007 -1.38696e-008 -7.84997e-007            -1  1.58648e-005
         12942      0.166667 -2.80057e-011 -1.38698e-008 -7.88623e-007 -1.38698e-008 -7.88627e-007            -1  1.59381e-005
       13001.7      0.166667 -1.76635e-011 -1.38699e-008 -7.92263e-007 -1.38699e-008 -7.92263e-007            -1  1.60116e-005
       13061.7      0.166667  1.65002e-011 -1.38701e-008  -7.9592e-007   -1.387e-008 -7.95925e-007            -1  1.60855e-005
         13122      0.166667 -4.22295e-011 -1.38702e-008 -7.99594e-007 -1.38702e-008 -7.99591e-007            -1  1.61598e-005
       13182.6      0.166667  7.75613e-012 -1.38703e-008 -8.03284e-007 -1.38703e-008 -8.03283e-007            -1  1.62344e-005
       13243.4      0.166667  2.25429e-013 -1.38705e-008 -8.06992e-007 -1.38705e-008 -8.06993e-007            -1  1.63093e-005
       13304.5      0.166667  6.15404e-013 -1.38706e-008 -8.10717e-007 -1.38706e-008 -8.10712e-007            -1  1.63846e-005
         13366      0.166667   7.1615e-012 -1.38708e-008 -8.14459e-007 -1.38708e-008 -8.14461e-007            -1  1.64602e-005
       13427.6      0.166667  6.05423e-011 -1.38709e-008 -8.18219e-007  -1.3871e-008 -8.18221e-007            -1  1.65362e-005
       13489.6      0.166667 -3.37691e-011 -1.38711e-008 -8.21995e-007 -1.38711e-008 -8.21995e-007            -1  1.66125e-005
       13551.9      0.166667   7.9692e-011 -1.38712e-008 -8.25789e-007 -1.38713e-008 -8.25787e-007            -1  1.66892e-005
       13614.4      0.166667  3.83951e-011 -1.38714e-008 -8.29601e-007 -1.38714e-008 -8.29601e-007            -1  1.67662e-005
       13677.3      0.166667  1.91903e-011 -1.38716e-008  -8.3343e-007 -1.38715e-008  -8.3343e-007            -1  1.68436e-005
       13740.4      0.166667  1.85447e-011 -1.38717e-008 -8.37277e-007 -1.38717e-008  -8.3728e-007            -1  1.69214e-005
       13803.8      0.166667  5.76839e-011 -1.38719e-008 -8.41142e-007 -1.38719e-008 -8.41139e-007            -1  1.69995e-005
       13867.6      0.166667  2.69672e-011  -1.3872e-008 -8.45024e-007  -1.3872e-008 -8.45025e-007            -1  1.70779e-005
       13931.6      0.166667   1.1285e-011 -1.38722e-008 -8.48925e-007 -1.38722e-008 -8.48927e-007            -1  1.71568e-005
       13995.9      0.166667  1.41782e-011 -1.38724e-008 -8.52843e-007 -1.38724e-008 -8.52844e-007            -1   1.7236e-005
       14060.5      0.166667  3.91879e-011 -1.38725e-008  -8.5678e-007 -1.38725e-008 -8.56779e-007            -1  1.73155e-005
       14125.4      0.166667  4.91805e-011 -1.38727e-008 -8.60735e-007 -1.38727e-008 -8.60732e-007            -1  1.73955e-005
       14190.6      0.166667  3.00125e-011 -1.38729e-008 -8.64708e-007 -1.38728e-008 -8.64704e-007            -1  1.74757e-005
       14256.1      0.166667 -7.70116e-012  -1.3873e-008 -8.68699e-007  -1.3873e-008 -8.68699e-007            -1  1.75564e-005
       14321.9      0.166667  1.47673e-012 -1.38732e-008 -8.72709e-007 -1.38732e-008 -8.72712e-007            -1  1.76374e-005
         14388      0.166667  4.16343e-011 -1.38734e-008 -8.76737e-007 -1.38734e-008 -8.76736e-007            -1  1.77189e-005
       14454.4      0.166667  -1.9859e-011 -1.38735e-008 -8.80784e-007 -1.38736e-008 -8.80784e-007            -1  1.78006e-005
       14521.1      0.166667 -3.44479e-011 -1.38737e-008 -8.84849e-007 -1.38737e-008 -8.84846e-007            -1  1.78828e-005
       14588.1      0.166667 -1.45076e-011 -1.38739e-008 -8.88934e-007 -1.38739e-008 -8.88934e-007            -1  1.79654e-005
       14655.5      0.166667  4.59708e-012 -1.38741e-008 -8.93037e-007 -1.38741e-008 -8.93037e-007            -1  1.80483e-005
       14723.1      0.166667 -4.78681e-011 -1.38743e-008 -8.97159e-007 -1.38742e-008 -8.97157e-007            -1  1.81316e-005
       14791.1      0.166667  -6.5791e-011 -1.38744e-008   -9.013e-007 -1.38745e-008 -9.01301e-007            -1  1.82153e-005
       14859.4      0.166667 -6.15465e-011 -1.38746e-008  -9.0546e-007 -1.38747e-008 -9.05462e-007            -1  1.82994e-005
       14927.9      0.166667 -1.21404e-011 -1.38748e-008 -9.09639e-007 -1.38748e-008 -9.09639e-007            -1  1.83838e-005
       14996.8      0.166667  1.16933e-011  -1.3875e-008 -9.13838e-007  -1.3875e-008 -9.13835e-007            -1  1.84687e-005
       15066.1      0.166667 -1.47994e-011 -1.38752e-008 -9.18056e-007 -1.38752e-008 -9.18053e-007            -1  1.85539e-005
       15135.6      0.166667  3.88284e-012 -1.38754e-008 -9.22294e-007 -1.38754e-008 -9.22293e-007            -1  1.86396e-005
       15205.5      0.166667  -5.2511e-011 -1.38756e-008 -9.26551e-007 -1.38756e-008 -9.26552e-007            -1  1.87256e-005
       15275.7      0.166667  2.64706e-011 -1.38758e-008 -9.30828e-007 -1.38757e-008 -9.30831e-007            -1   1.8812e-005
       15346.2      0.166667 -3.32796e-011  -1.3876e-008 -9.35124e-007 -1.38759e-008 -9.35124e-007            -1  1.88989e-005
         15417      0.166667 -1.20344e-010 -1.38762e-008 -9.39441e-007 -1.38761e-008 -9.39444e-007            -1  1.89861e-005
       15488.2      0.166667 -2.42707e-011 -1.38764e-008 -9.43777e-007 -1.38764e-008 -9.43778e-007            -1  1.90737e-005
       15559.7      0.166667  -2.6241e-011 -1.38766e-008 -9.48133e-007 -1.38766e-008 -9.48133e-007            -1  1.91618e-005
       15631.5      0.166667  5.23643e-011 -1.38768e-008 -9.52509e-007 -1.38767e-008 -9.52509e-007            -1  1.92502e-005
       15703.6      0.166667   4.7083e-011  -1.3877e-008 -9.56906e-007  -1.3877e-008 -9.56908e-007            -1  1.93391e-005
       15776.1      0.166667 -6.71106e-012 -1.38772e-008 -9.61323e-007 -1.38772e-008 -9.61325e-007            -1  1.94283e-005
       15848.9      0.166667  2.89267e-011 -1.38774e-008  -9.6576e-007 -1.38774e-008  -9.6576e-007            -1   1.9518e-005
       15922.1      0.166667   1.9598e-011 -1.38776e-008 -9.70218e-007 -1.38776e-008  -9.7022e-007            -1  1.96081e-005
       15995.6      0.166667  4.48881e-011 -1.38778e-008 -9.74696e-007 -1.38778e-008 -9.74695e-007            -1  1.96986e-005
       16069.4      0.166667  7.53634e-012  -1.3878e-008 -9.79195e-007  -1.3878e-008 -9.79197e-007            -1  1.97895e-005
       16143.6      0.166667  2.24976e-011 -1.38783e-008 -9.83715e-007 -1.38782e-008 -9.83715e-007            -1  1.98809e-005
       16218.1      0.166667   6.1481e-011 -1.38785e-008 -9.88256e-007 -1.38785e-008 -9.88256e-007            -1  1.99727e-005
         16293      0.166667 -1.07958e-011 -1.38787e-008 -9.92817e-007 -1.38788e-008  -9.9282e-007            -1  2.00648e-005
       16368.2      0.166667  -1.3945e-011 -1.38789e-008   -9.974e-007 -1.38789e-008 -9.97397e-007            -1  2.01575e-005
       16443.7      0.166667 -3.37321e-011 -1.38791e-008   -1.002e-006 -1.38791e-008 -1.00201e-006            -1  2.02505e-005
       16519.6      0.166667 -1.97513e-011 -1.38794e-008 -1.00663e-006 -1.38794e-008 -1.00663e-006            -1   2.0344e-005
       16595.9      0.166667  6.78085e-012 -1.38796e-008 -1.01128e-006 -1.38796e-008 -1.01127e-006            -1  2.04379e-005
       16672.5      0.166667  -2.7635e-012 -1.38798e-008 -1.01594e-006 -1.38799e-008 -1.01594e-006            -1  2.05322e-005
       16749.4      0.166667 -6.30987e-013 -1.38801e-008 -1.02063e-006   -1.388e-008 -1.02063e-006            -1   2.0627e-005
       16826.7      0.166667  5.22523e-012 -1.38803e-008 -1.02534e-006 -1.38803e-008 -1.02534e-006            -1  2.07222e-005
       16904.4      0.166667  4.19933e-012 -1.38805e-008 -1.03008e-006 -1.38806e-008 -1.03007e-006            -1  2.08178e-005
       16982.4      0.166667 -1.43145e-011 -1.38808e-008 -1.03483e-006 -1.38808e-008 -1.03483e-006            -1  2.09139e-005
       17060.8      0.166667  5.13753e-011  -1.3881e-008 -1.03961e-006  -1.3881e-008  -1.0396e-006            -1  2.10105e-005
       17139.6      0.166667  1.38168e-011 -1.38813e-008 -1.04441e-006 -1.38813e-008  -1.0444e-006            -1  2.11074e-005
       17218.7      0.166667  1.80288e-011 -1.38815e-008 -1.04923e-006 -1.38815e-008 -1.04923e-006            -1  2.12049e-005
       17298.2      0.166667  3.04157e-011 -1.38818e-008 -1.05407e-006 -1.38818e-008 -1.05407e-006            -1  2.13028e-005
         17378      0.166667 -9.14511e-012  -1.3882e-008 -1.05893e-006  -1.3882e-008 -1.05893e-006            -1  2.14011e-005
       17458.2      0.166667  1.78384e-011 -1.38823e-008 -1.06382e-006 -1.38822e-008 -1.06382e-006            -1  2.14999e-005
       17538.8      0.166667 -4.18601e-014 -1.38825e-008 -1.06873e-006 -1.38826e-008 -1.06873e-006            -1  2.15991e-005
       17619.8      0.166667 -9.72674e-012 -1.38828e-008 -1.07367e-006 -1.38828e-008 -1.07367e-006            -1  2.16988e-005
       17701.1      0.166667 -3.86223e-011 -1.38831e-008 -1.07862e-006 -1.38831e-008 -1.07862e-006            -1   2.1799e-005
       17782.8      0.166667 -3.36694e-011 -1.38833e-008  -1.0836e-006 -1.38833e-008  -1.0836e-006            -1  2.18996e-005
       17864.9      0.166667   1.2211e-011 -1.38836e-008  -1.0886e-006 -1.38836e-008  -1.0886e-006            -1  2.20007e-005
       17947.3      0.166667  -1.2389e-011 -1.38839e-008 -1.09363e-006 -1.38839e-008 -1.09363e-006            -1  2.21022e-005
       18030.2      0.166667  2.16336e-011 -1.38841e-008 -1.09868e-006 -1.38841e-008 -1.09868e-006            -1  2.22042e-005
       18113.4      0.166667  3.11665e-011 -1.38844e-008 -1.10375e-006 -1.38844e-008 -1.10375e-006            -1  2.23067e-005
         18197      0.166667 -8.54363e-012 -1.38847e-008 -1.10884e-006 -1.38847e-008 -1.10884e-006            -1  2.24097e-005
         18281      0.166667  1.56903e-011  -1.3885e-008 -1.11396e-006 -1.38849e-008 -1.11396e-006            -1  2.25131e-005
       18365.4      0.166667 -1.72662e-011 -1.38852e-008  -1.1191e-006 -1.38852e-008  -1.1191e-006            -1   2.2617e-005
       18450.2      0.166667 -1.45632e-011 -1.38855e-008 -1.12427e-006 -1.38856e-008 -1.12427e-006            -1  2.27214e-005
       18535.3      0.166667 -1.15648e-011 -1.38858e-008 -1.12946e-006 -1.38858e-008 -1.12946e-006            -1  2.28263e-005
       18620.9      0.166667  4.99814e-012 -1.38861e-008 -1.13467e-006 -1.38861e-008 -1.13467e-006            -1  2.29317e-005
       18706.8      0.166667 -4.00287e-011 -1.38864e-008 -1.13991e-006 -1.38864e-008 -1.13991e-006            -1  2.30375e-005
       18793.2      0.166667 -7.81544e-012 -1.38867e-008 -1.14517e-006 -1.38867e-008 -1.14517e-006            -1  2.31439e-005
       18879.9      0.166667  5.26218e-012  -1.3887e-008 -1.15045e-006  -1.3887e-008 -1.15045e-006            -1  2.32507e-005
       18967.1      0.166667  8.93626e-012 -1.38873e-008 -1.15576e-006 -1.38873e-008 -1.15576e-006            -1   2.3358e-005
       19054.6      0.166667    5.597e-013 -1.38876e-008  -1.1611e-006 -1.38876e-008  -1.1611e-006            -1  2.34658e-005
       19142.6      0.166667   2.9655e-011 -1.38879e-008 -1.16646e-006 -1.38879e-008 -1.16646e-006            -1  2.35741e-005
       19230.9      0.166667  1.04574e-011 -1.38882e-008 -1.17184e-006 -1.38882e-008 -1.17184e-006            -1  2.36829e-005
       19319.7      0.166667  3.75853e-011 -1.38885e-008 -1.17725e-006 -1.38885e-008 -1.17726e-006            -1  2.37923e-005
       19408.9      0.166667 -2.60114e-011 -1.38888e-008 -1.18269e-006 -1.38888e-008 -1.18269e-006            -1  2.39021e-005
       19498.4      0.166667 -1.40917e-011 -1.38891e-008 -1.18814e-006 -1.38892e-008 -1.18814e-006            -1  2.40124e-005
       19588.4      0.166667 -3.57791e-012 -1.38895e-008 -1.19363e-006 -1.38895e-008 -1.19363e-006            -1  2.41232e-005
       19678.9      0.166667 -3.30656e-012 -1.38898e-008 -1.19914e-006 -1.38898e-008 -1.19914e-006            -1  2.42346e-005
       19769.7      0.166667 -1.59246e-011 -1.38901e-008 -1.20467e-006 -1.38901e-008 -1.20467e-006            -1  2.43465e-005
       19860.9      0.166667  -1.4015e-011 -1.38904e-008 -1.21023e-006 -1.38905e-008 -1.21023e-006            -1  2.44588e-005
       19952.6      0.166667  1.65758e-011 -1.38908e-008 -1.21582e-006 -1.38908e-008 -1.21582e-006            -1  2.45717e-005
       20044.7      0.166667 -5.05915e-011 -1.38911e-008 -1.22143e-006 -1.38911e-008 -1.22143e-006            -1  2.46851e-005
       20137.2      0.166667  6.43098e-012 -1.38915e-008 -1.22707e-006 -1.38915e-008 -1.22707e-006            -1  2.47991e-005
       20230.2      0.166667 -3.07558e-011 -1.38918e-008 -1.23273e-006 -1.38918e-008 -1.23274e-006            -1  2.49136e-005
       20323.6      0.166667  2.26583e-011 -1.38921e-008 -1.23842e-006 -1.38921e-008 -1.23842e-006            -1  2.50286e-005
