! NPort=2 DATA=4501 NOISE=0 GROUPDELAY=0 COMPLEX_DATAFORMAT=RI
! NumOfBlock=1 NumOfParam=0
!
! .MODEL Smodel S TSTONEFILE=./link_rx/link_rx_s3/lr10000_10000000000000dec_4_3.s2p TYPE=S
!   -- The above .MODEL line can be used for the S element in the netlist.
!
!
# Hz S RI R             50
         10000      0.166667  3.59417e-011 -1.38636e-008 -6.09353e-007 -1.38636e-008 -6.09355e-007            -1   1.2315e-005
       10046.2      0.166667   2.3025e-011 -1.38637e-008 -6.12166e-007 -1.38637e-008 -6.12167e-007            -1  1.23719e-005
       10092.5      0.166667   8.9823e-012 -1.38638e-008 -6.14992e-007 -1.38637e-008 -6.14989e-007            -1   1.2429e-005
       10139.1      0.166667 -2.91736e-011 -1.38639e-008  -6.1783e-007 -1.38639e-008 -6.17831e-007            -1  1.24864e-005
       10185.9      0.166667   -1.248e-012  -1.3864e-008 -6.20682e-007  -1.3864e-008 -6.20676e-007            -1   1.2544e-005
       10232.9      0.166667  1.31812e-011 -1.38641e-008 -6.23547e-007  -1.3864e-008 -6.23546e-007            -1  1.26019e-005
       10280.2      0.166667 -8.66853e-011 -1.38641e-008 -6.26425e-007 -1.38641e-008 -6.26426e-007            -1  1.26601e-005
       10327.6      0.166667   4.5774e-011 -1.38642e-008 -6.29317e-007 -1.38642e-008 -6.29309e-007            -1  1.27185e-005
       10375.3      0.166667   4.9796e-011 -1.38643e-008 -6.32222e-007 -1.38644e-008 -6.32223e-007            -1  1.27772e-005
       10423.2      0.166667   2.9723e-011 -1.38644e-008  -6.3514e-007 -1.38645e-008 -6.35137e-007            -1  1.28362e-005
       10471.3      0.166667 -4.27374e-011 -1.38645e-008 -6.38071e-007 -1.38646e-008 -6.38073e-007            -1  1.28954e-005
       10519.6      0.166667  3.95873e-012 -1.38646e-008 -6.41017e-007 -1.38647e-008 -6.41018e-007            -1  1.29549e-005
       10568.2      0.166667 -8.13071e-011 -1.38647e-008 -6.43975e-007 -1.38647e-008 -6.43981e-007            -1  1.30147e-005
         10617      0.166667 -1.02726e-011 -1.38648e-008 -6.46948e-007 -1.38648e-008 -6.46949e-007            -1  1.30748e-005
         10666      0.166667  8.79678e-011 -1.38649e-008 -6.49934e-007 -1.38648e-008 -6.49939e-007            -1  1.31352e-005
       10715.2      0.166667  6.50705e-012  -1.3865e-008 -6.52934e-007  -1.3865e-008 -6.52936e-007            -1  1.31958e-005
       10764.7      0.166667  2.83023e-011 -1.38651e-008 -6.55948e-007  -1.3865e-008 -6.55951e-007            -1  1.32567e-005
       10814.3      0.166667 -2.34896e-011 -1.38652e-008 -6.58976e-007 -1.38653e-008 -6.58975e-007            -1  1.33179e-005
       10864.3      0.166667 -9.22746e-011 -1.38653e-008 -6.62017e-007 -1.38653e-008 -6.62023e-007            -1  1.33794e-005
       10914.4      0.166667  5.00821e-011 -1.38654e-008 -6.65073e-007 -1.38653e-008 -6.65074e-007            -1  1.34411e-005
       10964.8      0.166667 -1.55418e-011 -1.38655e-008 -6.68143e-007 -1.38655e-008 -6.68144e-007            -1  1.35032e-005
       11015.4      0.166667 -8.83761e-013 -1.38656e-008 -6.71227e-007 -1.38656e-008  -6.7123e-007            -1  1.35655e-005
       11066.2      0.166667  1.27101e-011 -1.38657e-008 -6.74325e-007 -1.38657e-008 -6.74322e-007            -1  1.36281e-005
       11117.3      0.166667  8.89078e-011 -1.38658e-008 -6.77438e-007 -1.38659e-008 -6.77439e-007            -1   1.3691e-005
       11168.6      0.166667  4.88635e-012 -1.38659e-008 -6.80565e-007  -1.3866e-008 -6.80559e-007            -1  1.37542e-005
       11220.2      0.166667 -8.54948e-011  -1.3866e-008 -6.83706e-007 -1.38659e-008 -6.83705e-007            -1  1.38177e-005
         11272      0.166667 -3.61772e-012 -1.38661e-008 -6.86862e-007 -1.38662e-008  -6.8686e-007            -1  1.38815e-005
         11324      0.166667  6.66009e-011 -1.38662e-008 -6.90032e-007 -1.38662e-008 -6.90037e-007            -1  1.39456e-005
       11376.3      0.166667 -5.70178e-012 -1.38663e-008 -6.93217e-007 -1.38663e-008  -6.9322e-007            -1  1.40099e-005
       11428.8      0.166667  -7.7277e-011 -1.38664e-008 -6.96417e-007 -1.38664e-008 -6.96414e-007            -1  1.40746e-005
       11481.5      0.166667 -1.72553e-011 -1.38665e-008 -6.99631e-007 -1.38665e-008  -6.9963e-007            -1  1.41396e-005
       11534.5      0.166667   1.0575e-012 -1.38666e-008 -7.02861e-007 -1.38666e-008 -7.02867e-007            -1  1.42048e-005
       11587.8      0.166667  1.12655e-011 -1.38668e-008 -7.06105e-007 -1.38667e-008   -7.061e-007            -1  1.42704e-005
       11641.3      0.166667  3.10569e-011 -1.38669e-008 -7.09364e-007 -1.38669e-008 -7.09362e-007            -1  1.43363e-005
         11695      0.166667 -2.26828e-011  -1.3867e-008 -7.12639e-007  -1.3867e-008 -7.12639e-007            -1  1.44024e-005
         11749      0.166667  3.92753e-011 -1.38671e-008 -7.15928e-007 -1.38671e-008 -7.15925e-007            -1  1.44689e-005
       11803.2      0.166667  2.77093e-011 -1.38672e-008 -7.19232e-007 -1.38673e-008 -7.19236e-007            -1  1.45357e-005
       11857.7      0.166667 -3.96927e-011 -1.38673e-008 -7.22552e-007 -1.38674e-008 -7.22558e-007            -1  1.46028e-005
       11912.4      0.166667   7.5815e-011 -1.38674e-008 -7.25887e-007 -1.38674e-008 -7.25887e-007            -1  1.46702e-005
       11967.4      0.166667 -1.48255e-011 -1.38676e-008 -7.29238e-007 -1.38676e-008 -7.29234e-007            -1  1.47379e-005
       12022.6      0.166667  7.92192e-011 -1.38677e-008 -7.32604e-007 -1.38676e-008 -7.32603e-007            -1  1.48059e-005
       12078.1      0.166667  8.20726e-011 -1.38678e-008 -7.35986e-007 -1.38678e-008  -7.3599e-007            -1  1.48743e-005
       12133.9      0.166667 -4.51678e-011 -1.38679e-008 -7.39383e-007  -1.3868e-008 -7.39381e-007            -1  1.49429e-005
       12189.9      0.166667 -5.49138e-011 -1.38681e-008 -7.42796e-007 -1.38681e-008 -7.42795e-007            -1  1.50119e-005
       12246.2      0.166667 -2.15755e-013 -1.38682e-008 -7.46224e-007 -1.38682e-008 -7.46228e-007            -1  1.50812e-005
       12302.7      0.166667  3.22754e-011 -1.38683e-008 -7.49669e-007 -1.38683e-008 -7.49668e-007            -1  1.51508e-005
       12359.5      0.166667 -2.46384e-011 -1.38684e-008 -7.53129e-007 -1.38685e-008 -7.53129e-007            -1  1.52207e-005
       12416.5      0.166667  -3.1245e-011 -1.38686e-008 -7.56605e-007 -1.38685e-008 -7.56601e-007            -1   1.5291e-005
       12473.8      0.166667  1.84861e-012 -1.38687e-008 -7.60097e-007 -1.38687e-008 -7.60095e-007            -1  1.53616e-005
       12531.4      0.166667  4.98875e-011 -1.38688e-008 -7.63606e-007 -1.38688e-008 -7.63606e-007            -1  1.54325e-005
       12589.3      0.166667 -1.09169e-011  -1.3869e-008 -7.67131e-007 -1.38688e-008 -7.67129e-007            -1  1.55037e-005
       12647.4      0.166667 -7.25177e-012 -1.38691e-008 -7.70672e-007 -1.38691e-008 -7.70673e-007            -1  1.55753e-005
       12705.7      0.166667  2.90544e-011 -1.38692e-008 -7.74229e-007 -1.38692e-008 -7.74227e-007            -1  1.56472e-005
       12764.4      0.166667 -9.87077e-012 -1.38694e-008 -7.77802e-007 -1.38693e-008 -7.77802e-007            -1  1.57194e-005
       12823.3      0.166667 -1.08421e-011 -1.38695e-008 -7.81393e-007 -1.38695e-008  -7.8139e-007            -1  1.57919e-005
       12882.5      0.166667  1.55335e-011 -1.38696e-008 -7.84999e-007 -1.38697e-008 -7.85003e-007            -1  1.58648e-005
         12942      0.166667  3.03536e-011 -1.38698e-008 -7.88623e-007 -1.38698e-008 -7.88619e-007            -1  1.59381e-005
       13001.7      0.166667  1.41689e-011 -1.38699e-008 -7.92263e-007   -1.387e-008 -7.92267e-007            -1  1.60116e-005
       13061.7      0.166667 -2.95282e-012 -1.38701e-008  -7.9592e-007   -1.387e-008 -7.95921e-007            -1  1.60855e-005
         13122      0.166667 -2.98501e-011 -1.38702e-008 -7.99594e-007 -1.38703e-008 -7.99595e-007            -1  1.61598e-005
       13182.6      0.166667 -6.47507e-011 -1.38703e-008 -8.03284e-007 -1.38703e-008 -8.03285e-007            -1  1.62344e-005
       13243.4      0.166667  1.79102e-011 -1.38705e-008 -8.06992e-007 -1.38705e-008 -8.06997e-007            -1  1.63093e-005
       13304.5      0.166667  5.01324e-011 -1.38706e-008 -8.10717e-007 -1.38706e-008 -8.10719e-007            -1  1.63846e-005
         13366      0.166667  1.95408e-011 -1.38708e-008 -8.14459e-007 -1.38708e-008 -8.14456e-007            -1  1.64602e-005
       13427.6      0.166667  4.10893e-011 -1.38709e-008 -8.18219e-007 -1.38709e-008 -8.18218e-007            -1  1.65362e-005
       13489.6      0.166667  2.45902e-011 -1.38711e-008 -8.21995e-007 -1.38711e-008 -8.21999e-007            -1  1.66125e-005
       13551.9      0.166667   4.0786e-011 -1.38712e-008 -8.25789e-007 -1.38712e-008 -8.25788e-007            -1  1.66892e-005
       13614.4      0.166667  5.96168e-011 -1.38714e-008 -8.29601e-007 -1.38713e-008 -8.29604e-007            -1  1.67662e-005
       13677.3      0.166667  3.15697e-011 -1.38716e-008  -8.3343e-007 -1.38716e-008 -8.33431e-007            -1  1.68436e-005
       13740.4      0.166667 -3.09721e-011 -1.38717e-008 -8.37277e-007 -1.38717e-008 -8.37278e-007            -1  1.69214e-005
       13803.8      0.166667  2.58517e-011 -1.38719e-008 -8.41142e-007 -1.38719e-008  -8.4114e-007            -1  1.69995e-005
       13867.6      0.166667  2.20886e-012  -1.3872e-008 -8.45024e-007 -1.38721e-008 -8.45023e-007            -1  1.70779e-005
       13931.6      0.166667 -7.18326e-011 -1.38722e-008 -8.48925e-007 -1.38722e-008 -8.48927e-007            -1  1.71568e-005
       13995.9      0.166667  7.25376e-011 -1.38724e-008 -8.52843e-007 -1.38724e-008 -8.52846e-007            -1   1.7236e-005
       14060.5      0.166667  3.21142e-011 -1.38725e-008  -8.5678e-007 -1.38725e-008 -8.56778e-007            -1  1.73155e-005
       14125.4      0.166667  4.38753e-011 -1.38727e-008 -8.60735e-007 -1.38727e-008 -8.60731e-007            -1  1.73955e-005
       14190.6      0.166667  2.29388e-011 -1.38729e-008 -8.64708e-007 -1.38728e-008 -8.64707e-007            -1  1.74757e-005
       14256.1      0.166667 -1.47749e-011  -1.3873e-008 -8.68699e-007  -1.3873e-008 -8.68696e-007            -1  1.75564e-005
       14321.9      0.166667   -5.597e-012 -1.38732e-008 -8.72709e-007 -1.38732e-008 -8.72704e-007            -1  1.76374e-005
         14388      0.166667  9.80207e-012 -1.38734e-008 -8.76737e-007 -1.38734e-008 -8.76734e-007            -1  1.77189e-005
       14454.4      0.166667  -1.2785e-011 -1.38736e-008 -8.80784e-007 -1.38735e-008 -8.80781e-007            -1  1.78006e-005
       14521.1      0.166667 -4.15217e-011 -1.38737e-008 -8.84849e-007 -1.38738e-008 -8.84844e-007            -1  1.78828e-005
       14588.1      0.166667  2.26302e-011 -1.38739e-008 -8.88934e-007  -1.3874e-008 -8.88932e-007            -1  1.79654e-005
       14655.5      0.166667  9.90258e-012 -1.38741e-008 -8.93037e-007 -1.38741e-008 -8.93035e-007            -1  1.80483e-005
       14723.1      0.166667 -1.88792e-012 -1.38743e-008 -8.97159e-007 -1.38743e-008 -8.97158e-007            -1  1.81316e-005
       14791.1      0.166667 -1.80424e-011 -1.38744e-008   -9.013e-007 -1.38745e-008 -9.01299e-007            -1  1.82153e-005
       14859.4      0.166667 -4.20933e-011 -1.38746e-008  -9.0546e-007 -1.38746e-008 -9.05466e-007            -1  1.82994e-005
       14927.9      0.166667  5.54433e-012 -1.38748e-008 -9.09639e-007 -1.38748e-008 -9.09641e-007            -1  1.83838e-005
       14996.8      0.166667 -1.48335e-011  -1.3875e-008 -9.13838e-007  -1.3875e-008 -9.13833e-007            -1  1.84687e-005
       15066.1      0.166667 -1.65677e-011 -1.38752e-008 -9.18056e-007 -1.38752e-008 -9.18055e-007            -1  1.85539e-005
       15135.6      0.166667 -2.79494e-011 -1.38754e-008 -9.22294e-007 -1.38754e-008 -9.22297e-007            -1  1.86396e-005
       15205.5      0.166667  4.07992e-012 -1.38756e-008 -9.26551e-007 -1.38756e-008 -9.26553e-007            -1  1.87256e-005
       15275.7      0.166667 -5.36161e-012 -1.38758e-008 -9.30828e-007 -1.38758e-008 -9.30828e-007            -1   1.8812e-005
       15346.2      0.166667 -3.50479e-011  -1.3876e-008 -9.35124e-007  -1.3876e-008 -9.35123e-007            -1  1.88989e-005
         15417      0.166667 -1.77729e-011 -1.38762e-008 -9.39441e-007 -1.38761e-008  -9.3944e-007            -1  1.89861e-005
       15488.2      0.166667  5.70787e-011 -1.38764e-008 -9.43777e-007 -1.38764e-008 -9.43777e-007            -1  1.90737e-005
       15559.7      0.166667 -3.15463e-011 -1.38766e-008 -9.48133e-007 -1.38766e-008 -9.48133e-007            -1  1.91618e-005
       15631.5      0.166667  7.18175e-011 -1.38768e-008 -9.52509e-007 -1.38768e-008 -9.52511e-007            -1  1.92502e-005
       15703.6      0.166667  1.52508e-011  -1.3877e-008 -9.56906e-007  -1.3877e-008 -9.56907e-007            -1  1.93391e-005
       15776.1      0.166667 -1.37848e-011 -1.38772e-008 -9.61323e-007 -1.38772e-008 -9.61326e-007            -1  1.94283e-005
       15848.9      0.166667  1.47792e-011 -1.38774e-008  -9.6576e-007 -1.38773e-008 -9.65759e-007            -1   1.9518e-005
       15922.1      0.166667 -1.75396e-011 -1.38776e-008 -9.70218e-007 -1.38776e-008  -9.7022e-007            -1  1.96081e-005
       15995.6      0.166667 -6.39721e-012 -1.38778e-008 -9.74696e-007 -1.38779e-008 -9.74698e-007            -1  1.96986e-005
       16069.4      0.166667  1.99157e-011  -1.3878e-008 -9.79195e-007  -1.3878e-008 -9.79194e-007            -1  1.97895e-005
       16143.6      0.166667  2.78031e-011 -1.38783e-008 -9.83715e-007 -1.38783e-008 -9.83717e-007            -1  1.98809e-005
       16218.1      0.166667 -2.69419e-011 -1.38785e-008 -9.88256e-007 -1.38785e-008 -9.88259e-007            -1  1.99727e-005
         16293      0.166667 -4.60602e-012 -1.38787e-008 -9.92817e-007 -1.38787e-008 -9.92818e-007            -1  2.00648e-005
       16368.2      0.166667 -3.33979e-011 -1.38789e-008   -9.974e-007  -1.3879e-008 -9.97399e-007            -1  2.01575e-005
       16443.7      0.166667   2.3743e-011 -1.38791e-008   -1.002e-006 -1.38791e-008   -1.002e-006            -1  2.02505e-005
       16519.6      0.166667 -3.92043e-011 -1.38794e-008 -1.00663e-006 -1.38794e-008 -1.00663e-006            -1   2.0344e-005
       16595.9      0.166667 -3.12409e-011 -1.38796e-008 -1.01128e-006 -1.38796e-008 -1.01128e-006            -1  2.04379e-005
       16672.5      0.166667 -1.51426e-011 -1.38798e-008 -1.01594e-006 -1.38798e-008 -1.01594e-006            -1  2.05322e-005
       16749.4      0.166667 -1.91997e-011 -1.38801e-008 -1.02063e-006   -1.388e-008 -1.02063e-006            -1   2.0627e-005
       16826.7      0.166667  2.46784e-011 -1.38803e-008 -1.02534e-006 -1.38803e-008 -1.02534e-006            -1  2.07222e-005
       16904.4      0.166667 -6.03494e-011 -1.38805e-008 -1.03008e-006 -1.38805e-008 -1.03007e-006            -1  2.08178e-005
       16982.4      0.166667   3.6971e-011 -1.38808e-008 -1.03483e-006 -1.38808e-008 -1.03483e-006            -1  2.09139e-005
       17060.8      0.166667 -3.97004e-011  -1.3881e-008 -1.03961e-006  -1.3881e-008 -1.03961e-006            -1  2.10105e-005
       17139.6      0.166667 -4.98477e-011 -1.38813e-008 -1.04441e-006 -1.38813e-008 -1.04441e-006            -1  2.11074e-005
       17218.7      0.166667  3.12924e-011 -1.38815e-008 -1.04923e-006 -1.38815e-008 -1.04923e-006            -1  2.12049e-005
       17298.2      0.166667 -2.08695e-011 -1.38818e-008 -1.05407e-006 -1.38818e-008 -1.05407e-006            -1  2.13028e-005
         17378      0.166667 -8.26074e-012  -1.3882e-008 -1.05893e-006  -1.3882e-008 -1.05894e-006            -1  2.14011e-005
       17458.2      0.166667 -2.72573e-011 -1.38823e-008 -1.06382e-006 -1.38823e-008 -1.06382e-006            -1  2.14999e-005
       17538.8      0.166667  1.85271e-011 -1.38825e-008 -1.06873e-006 -1.38825e-008 -1.06873e-006            -1  2.15991e-005
       17619.8      0.166667  1.59161e-011 -1.38828e-008 -1.07367e-006 -1.38828e-008 -1.07367e-006            -1  2.16988e-005
       17701.1      0.166667  1.35475e-011 -1.38831e-008 -1.07862e-006 -1.38831e-008 -1.07862e-006            -1   2.1799e-005
       17782.8      0.166667  1.23108e-011 -1.38833e-008  -1.0836e-006 -1.38833e-008  -1.0836e-006            -1  2.18996e-005
       17864.9      0.166667  1.30954e-011 -1.38836e-008  -1.0886e-006 -1.38836e-008  -1.0886e-006            -1  2.20007e-005
       17947.3      0.166667 -4.42212e-011 -1.38839e-008 -1.09363e-006 -1.38838e-008 -1.09363e-006            -1  2.21022e-005
       18030.2      0.166667  8.37031e-012 -1.38841e-008 -1.09868e-006 -1.38841e-008 -1.09868e-006            -1  2.22042e-005
       18113.4      0.166667 -1.39292e-011 -1.38844e-008 -1.10375e-006 -1.38844e-008 -1.10375e-006            -1  2.23067e-005
         18197      0.166667  2.32888e-011 -1.38847e-008 -1.10884e-006 -1.38847e-008 -1.10884e-006            -1  2.24097e-005
         18281      0.166667  9.50078e-012  -1.3885e-008 -1.11396e-006  -1.3885e-008 -1.11396e-006            -1  2.25131e-005
       18365.4      0.166667 -2.25714e-011 -1.38852e-008  -1.1191e-006 -1.38852e-008  -1.1191e-006            -1   2.2617e-005
       18450.2      0.166667  4.00577e-012 -1.38855e-008 -1.12427e-006 -1.38855e-008 -1.12427e-006            -1  2.27214e-005
       18535.3      0.166667 -1.77542e-011 -1.38858e-008 -1.12946e-006 -1.38858e-008 -1.12945e-006            -1  2.28263e-005
       18620.9      0.166667  2.53356e-011 -1.38861e-008 -1.13467e-006 -1.38861e-008 -1.13467e-006            -1  2.29317e-005
       18706.8      0.166667  5.06726e-012 -1.38864e-008 -1.13991e-006 -1.38864e-008 -1.13991e-006            -1  2.30375e-005
       18793.2      0.166667 -3.43422e-011 -1.38867e-008 -1.14517e-006 -1.38867e-008 -1.14517e-006            -1  2.31439e-005
       18879.9      0.166667  6.14656e-012  -1.3887e-008 -1.15045e-006  -1.3887e-008 -1.15045e-006            -1  2.32507e-005
       18967.1      0.166667   2.7468e-012 -1.38873e-008 -1.15576e-006 -1.38873e-008 -1.15576e-006            -1   2.3358e-005
       19054.6      0.166667  1.20549e-011 -1.38876e-008  -1.1611e-006 -1.38876e-008  -1.1611e-006            -1  2.34658e-005
       19142.6      0.166667  3.12825e-012 -1.38879e-008 -1.16646e-006 -1.38879e-008 -1.16646e-006            -1  2.35741e-005
       19230.9      0.166667  3.38375e-012 -1.38882e-008 -1.17184e-006 -1.38882e-008 -1.17184e-006            -1  2.36829e-005
       19319.7      0.166667 -1.32067e-012 -1.38885e-008 -1.17725e-006 -1.38885e-008 -1.17725e-006            -1  2.37923e-005
       19408.9      0.166667  5.15663e-013 -1.38888e-008 -1.18269e-006 -1.38888e-008 -1.18268e-006            -1  2.39021e-005
       19498.4      0.166667  3.59306e-012 -1.38891e-008 -1.18814e-006 -1.38892e-008 -1.18815e-006            -1  2.40124e-005
       19588.4      0.166667  2.91388e-011 -1.38895e-008 -1.19363e-006 -1.38895e-008 -1.19363e-006            -1  2.41232e-005
       19678.9      0.166667  1.52625e-011 -1.38898e-008 -1.19914e-006 -1.38898e-008 -1.19914e-006            -1  2.42346e-005
       19769.7      0.166667  9.71829e-012 -1.38901e-008 -1.20467e-006 -1.38901e-008 -1.20467e-006            -1  2.43465e-005
       19860.9      0.166667  5.43827e-012 -1.38904e-008 -1.21023e-006 -1.38904e-008 -1.21024e-006            -1  2.44588e-005
       19952.6      0.166667  2.80709e-011 -1.38908e-008 -1.21582e-006 -1.38908e-008 -1.21582e-006            -1  2.45717e-005
       20044.7      0.166667 -1.25695e-011 -1.38911e-008 -1.22143e-006 -1.38911e-008 -1.22143e-006            -1  2.46851e-005
       20137.2      0.166667  2.41523e-013 -1.38915e-008 -1.22707e-006 -1.38915e-008 -1.22707e-006            -1  2.47991e-005
       20230.2      0.166667  2.67194e-011 -1.38918e-008 -1.23273e-006 -1.38918e-008 -1.23274e-006            -1  2.49136e-005
       20323.6      0.166667  2.26585e-011 -1.38921e-008 -1.23842e-006 -1.38922e-008 -1.23842e-006            -1  2.50286e-005
