! NPort=2 DATA=4501 NOISE=0 GROUPDELAY=0 COMPLEX_DATAFORMAT=RI
! NumOfBlock=1 NumOfParam=0
!
! .MODEL Smodel S TSTONEFILE=./link_rx/link_rx_s3/lr10000_10000000000000dec_0_5.s2p TYPE=S
!   -- The above .MODEL line can be used for the S element in the netlist.
!
!
# Hz S RI R             50
         10000      0.166667 -4.78124e-012 -5.15934e-011 -2.24631e-009 -5.16029e-011 -2.24642e-009            -1   1.2315e-005
       10046.2      0.166667 -4.23558e-011 -5.15983e-011 -2.25668e-009 -5.15961e-011 -2.25656e-009            -1  1.23719e-005
       10092.5      0.166667 -1.46695e-012 -5.16031e-011 -2.26709e-009 -5.15972e-011 -2.26714e-009            -1   1.2429e-005
       10139.1      0.166667 -6.42634e-011 -5.16081e-011 -2.27756e-009 -5.16048e-011 -2.27776e-009            -1  1.24864e-005
       10185.9      0.166667 -7.91581e-012 -5.16129e-011 -2.28807e-009 -5.16036e-011 -2.28868e-009            -1   1.2544e-005
       10232.9      0.166667  8.41719e-012 -5.16181e-011 -2.29863e-009 -5.16207e-011 -2.29856e-009            -1  1.26019e-005
       10280.2      0.166667 -3.82513e-011 -5.16231e-011 -2.30924e-009 -5.16198e-011 -2.30974e-009            -1  1.26601e-005
       10327.6      0.166667  4.16944e-012 -5.16281e-011  -2.3199e-009 -5.16311e-011 -2.31993e-009            -1  1.27185e-005
       10375.3      0.166667  4.90279e-011 -5.16333e-011 -2.33061e-009 -5.16352e-011 -2.33059e-009            -1  1.27772e-005
       10423.2      0.166667  3.26626e-011 -5.16384e-011 -2.34137e-009 -5.16379e-011   -2.341e-009            -1  1.28362e-005
       10471.3      0.166667  1.34357e-011 -5.16438e-011 -2.35217e-009 -5.16434e-011 -2.35174e-009            -1  1.28954e-005
       10519.6      0.166667 -3.34408e-012  -5.1649e-011 -2.36303e-009  -5.1647e-011 -2.36293e-009            -1  1.29549e-005
       10568.2      0.166667 -5.83484e-011 -5.16543e-011 -2.37394e-009 -5.16587e-011 -2.37452e-009            -1  1.30147e-005
         10617      0.166667 -1.18655e-011 -5.16597e-011 -2.38489e-009 -5.16579e-011 -2.38534e-009            -1  1.30748e-005
         10666      0.166667  2.46946e-011 -5.16651e-011  -2.3959e-009 -5.16643e-011  -2.3959e-009            -1  1.31352e-005
       10715.2      0.166667  8.89208e-012 -5.16705e-011 -2.40696e-009 -5.16659e-011 -2.40711e-009            -1  1.31958e-005
       10764.7      0.166667  2.03108e-011  -5.1676e-011 -2.41807e-009 -5.16774e-011 -2.41827e-009            -1  1.32567e-005
       10814.3      0.166667   5.8954e-011 -5.16817e-011 -2.42923e-009 -5.16822e-011 -2.42903e-009            -1  1.33179e-005
       10864.3      0.166667 -4.14104e-011 -5.16874e-011 -2.44045e-009 -5.16871e-011 -2.44033e-009            -1  1.33794e-005
       10914.4      0.166667 -1.72785e-011 -5.16928e-011 -2.45171e-009 -5.16871e-011 -2.45179e-009            -1  1.34411e-005
       10964.8      0.166667  4.82352e-011 -5.16988e-011 -2.46303e-009 -5.16975e-011 -2.46296e-009            -1  1.35032e-005
       11015.4      0.166667 -3.76281e-011 -5.17044e-011  -2.4744e-009  -5.1702e-011 -2.47456e-009            -1  1.35655e-005
       11066.2      0.166667  2.78308e-012 -5.17104e-011 -2.48582e-009 -5.17022e-011 -2.48585e-009            -1  1.36281e-005
       11117.3      0.166667  5.80591e-011  -5.1716e-011 -2.49729e-009 -5.17196e-011 -2.49719e-009            -1   1.3691e-005
       11168.6      0.166667 -2.74214e-011 -5.17221e-011 -2.50882e-009 -5.17252e-011   -2.509e-009            -1  1.37542e-005
       11220.2      0.166667 -2.19866e-011  -5.1728e-011  -2.5204e-009 -5.17335e-011  -2.5202e-009            -1  1.38177e-005
         11272      0.166667 -2.99724e-011 -5.17343e-011 -2.53203e-009 -5.17346e-011 -2.53195e-009            -1  1.38815e-005
         11324      0.166667  6.71115e-011 -5.17404e-011 -2.54372e-009 -5.17478e-011 -2.54352e-009            -1  1.39456e-005
       11376.3      0.166667  4.82108e-011 -5.17464e-011 -2.55546e-009 -5.17485e-011 -2.55564e-009            -1  1.40099e-005
       11428.8      0.166667 -5.83759e-011 -5.17527e-011 -2.56726e-009 -5.17499e-011 -2.56762e-009            -1  1.40746e-005
       11481.5      0.166667  6.56781e-011  -5.1759e-011 -2.57911e-009 -5.17663e-011 -2.57906e-009            -1  1.41396e-005
       11534.5      0.166667  2.42408e-011 -5.17654e-011 -2.59101e-009 -5.17655e-011 -2.59066e-009            -1  1.42048e-005
       11587.8      0.166667 -1.64492e-011 -5.17719e-011 -2.60297e-009 -5.17676e-011 -2.60289e-009            -1  1.42704e-005
       11641.3      0.166667 -5.10278e-012  -5.1778e-011 -2.61498e-009 -5.17872e-011 -2.61475e-009            -1  1.43363e-005
         11695      0.166667  2.11457e-011 -5.17849e-011 -2.62705e-009 -5.17903e-011 -2.62702e-009            -1  1.44024e-005
         11749      0.166667  7.47737e-012 -5.17912e-011 -2.63918e-009 -5.17985e-011 -2.63966e-009            -1  1.44689e-005
       11803.2      0.166667  6.94966e-012 -5.17979e-011 -2.65136e-009 -5.17968e-011 -2.65136e-009            -1  1.45357e-005
       11857.7      0.166667 -5.19242e-012 -5.18045e-011  -2.6636e-009 -5.18115e-011 -2.66368e-009            -1  1.46028e-005
       11912.4      0.166667  2.41085e-011 -5.18114e-011  -2.6759e-009 -5.18084e-011 -2.67623e-009            -1  1.46702e-005
       11967.4      0.166667 -2.36309e-011 -5.18183e-011 -2.68825e-009 -5.18198e-011 -2.68855e-009            -1  1.47379e-005
       12022.6      0.166667  4.43552e-011  -5.1825e-011 -2.70066e-009 -5.18202e-011 -2.70087e-009            -1  1.48059e-005
       12078.1      0.166667  7.42143e-011 -5.18322e-011 -2.71312e-009 -5.18255e-011 -2.71347e-009            -1  1.48743e-005
       12133.9      0.166667  2.88121e-011  -5.1839e-011 -2.72564e-009 -5.18312e-011  -2.7254e-009            -1  1.49429e-005
       12189.9      0.166667  7.18629e-012 -5.18462e-011 -2.73823e-009 -5.18503e-011 -2.73791e-009            -1  1.50119e-005
       12246.2      0.166667  4.11727e-011 -5.18533e-011 -2.75086e-009 -5.18549e-011 -2.75076e-009            -1  1.50812e-005
       12302.7      0.166667  1.05196e-011 -5.18605e-011 -2.76356e-009 -5.18613e-011 -2.76396e-009            -1  1.51508e-005
       12359.5      0.166667 -3.17155e-011 -5.18679e-011 -2.77632e-009 -5.18668e-011  -2.7759e-009            -1  1.52207e-005
       12416.5      0.166667  2.76527e-011 -5.18752e-011 -2.78913e-009 -5.18646e-011  -2.7897e-009            -1   1.5291e-005
       12473.8      0.166667 -3.95038e-011 -5.18828e-011 -2.80201e-009 -5.18949e-011 -2.80204e-009            -1  1.53616e-005
       12531.4      0.166667 -2.80396e-011 -5.18902e-011 -2.81494e-009  -5.1887e-011 -2.81504e-009            -1  1.54325e-005
       12589.3      0.166667 -4.22903e-011 -5.18976e-011 -2.82793e-009 -5.19007e-011  -2.8282e-009            -1  1.55037e-005
       12647.4      0.166667 -2.91983e-011 -5.19053e-011 -2.84099e-009 -5.19058e-011 -2.84143e-009            -1  1.55753e-005
       12705.7      0.166667 -5.41928e-011  -5.1913e-011  -2.8541e-009 -5.19063e-011 -2.85445e-009            -1  1.56472e-005
       12764.4      0.166667 -4.65317e-011 -5.19209e-011 -2.86727e-009 -5.19216e-011 -2.86769e-009            -1  1.57194e-005
       12823.3      0.166667 -5.74965e-011 -5.19287e-011 -2.88051e-009  -5.1928e-011 -2.88064e-009            -1  1.57919e-005
       12882.5      0.166667 -3.40295e-011 -5.19368e-011  -2.8938e-009 -5.19326e-011 -2.89389e-009            -1  1.58648e-005
         12942      0.166667    2.741e-011 -5.19445e-011 -2.90716e-009 -5.19496e-011 -2.90671e-009            -1  1.59381e-005
       13001.7      0.166667  3.30973e-011 -5.19526e-011 -2.92058e-009 -5.19535e-011 -2.92043e-009            -1  1.60116e-005
       13061.7      0.166667 -4.52589e-011 -5.19607e-011 -2.93406e-009 -5.19612e-011 -2.93401e-009            -1  1.60855e-005
         13122      0.166667 -4.49565e-011 -5.19688e-011  -2.9476e-009 -5.19701e-011 -2.94769e-009            -1  1.61598e-005
       13182.6      0.166667 -1.90452e-011 -5.19772e-011 -2.96121e-009 -5.19792e-011 -2.96104e-009            -1  1.62344e-005
       13243.4      0.166667 -2.89044e-012 -5.19855e-011 -2.97488e-009 -5.19866e-011 -2.97488e-009            -1  1.63093e-005
       13304.5      0.166667  -5.3079e-011 -5.19943e-011 -2.98861e-009  -5.1998e-011 -2.98901e-009            -1  1.63846e-005
         13366      0.166667 -3.52039e-011 -5.20027e-011  -3.0024e-009 -5.20021e-011 -3.00219e-009            -1  1.64602e-005
       13427.6      0.166667  1.22196e-012 -5.20113e-011 -3.01626e-009 -5.20143e-011 -3.01625e-009            -1  1.65362e-005
       13489.6      0.166667 -5.16736e-011 -5.20197e-011 -3.03019e-009 -5.20196e-011 -3.03023e-009            -1  1.66125e-005
       13551.9      0.166667 -6.42955e-012 -5.20285e-011 -3.04417e-009 -5.20338e-011 -3.04396e-009            -1  1.66892e-005
       13614.4      0.166667  1.84711e-011 -5.20375e-011 -3.05822e-009 -5.20337e-011  -3.0585e-009            -1  1.67662e-005
       13677.3      0.166667  1.41902e-011 -5.20464e-011 -3.07234e-009 -5.20469e-011 -3.07231e-009            -1  1.68436e-005
       13740.4      0.166667 -2.81106e-011 -5.20554e-011 -3.08652e-009 -5.20542e-011 -3.08685e-009            -1  1.69214e-005
       13803.8      0.166667 -5.85635e-012 -5.20644e-011 -3.10077e-009 -5.20671e-011 -3.10088e-009            -1  1.69995e-005
       13867.6      0.166667  3.67455e-011 -5.20738e-011 -3.11508e-009 -5.20739e-011 -3.11476e-009            -1  1.70779e-005
       13931.6      0.166667 -5.94625e-011 -5.20828e-011 -3.12946e-009   -5.208e-011 -3.12934e-009            -1  1.71568e-005
       13995.9      0.166667 -5.39654e-011 -5.20921e-011  -3.1439e-009 -5.20862e-011 -3.14437e-009            -1   1.7236e-005
       14060.5      0.166667  -1.5729e-011 -5.21016e-011 -3.15841e-009 -5.21015e-011 -3.15863e-009            -1  1.73155e-005
       14125.4      0.166667 -3.84776e-011  -5.2111e-011 -3.17299e-009   -5.211e-011 -3.17309e-009            -1  1.73955e-005
       14190.6      0.166667  2.10384e-011 -5.21207e-011 -3.18764e-009 -5.21237e-011 -3.18741e-009            -1  1.74757e-005
       14256.1      0.166667 -1.64373e-012 -5.21304e-011 -3.20235e-009 -5.21291e-011 -3.20262e-009            -1  1.75564e-005
       14321.9      0.166667 -2.87074e-011 -5.21404e-011 -3.21713e-009 -5.21439e-011 -3.21729e-009            -1  1.76374e-005
         14388      0.166667  2.12008e-011 -5.21502e-011 -3.23198e-009 -5.21467e-011 -3.23215e-009            -1  1.77189e-005
       14454.4      0.166667 -2.34555e-011   -5.216e-011  -3.2469e-009 -5.21579e-011 -3.24643e-009            -1  1.78006e-005
       14521.1      0.166667  8.86868e-012 -5.21702e-011 -3.26189e-009 -5.21667e-011 -3.26192e-009            -1  1.78828e-005
       14588.1      0.166667 -1.44569e-011 -5.21802e-011 -3.27695e-009 -5.21845e-011 -3.27675e-009            -1  1.79654e-005
       14655.5      0.166667 -6.33641e-011 -5.21905e-011 -3.29207e-009 -5.21909e-011 -3.29199e-009            -1  1.80483e-005
       14723.1      0.166667  1.60077e-011 -5.22007e-011 -3.30727e-009 -5.22041e-011 -3.30693e-009            -1  1.81316e-005
       14791.1      0.166667  2.60515e-012 -5.22114e-011 -3.32253e-009 -5.22132e-011 -3.32284e-009            -1  1.82153e-005
       14859.4      0.166667 -3.81343e-011 -5.22217e-011 -3.33787e-009 -5.22218e-011 -3.33776e-009            -1  1.82994e-005
       14927.9      0.166667  4.58814e-011 -5.22326e-011 -3.35327e-009 -5.22292e-011  -3.3535e-009            -1  1.83838e-005
       14996.8      0.166667 -3.53856e-012 -5.22432e-011 -3.36875e-009  -5.2243e-011 -3.36849e-009            -1  1.84687e-005
       15066.1      0.166667 -9.54364e-012  -5.2254e-011  -3.3843e-009 -5.22475e-011  -3.3843e-009            -1  1.85539e-005
       15135.6      0.166667 -5.73009e-012 -5.22649e-011 -3.39992e-009  -5.2264e-011 -3.39981e-009            -1  1.86396e-005
       15205.5      0.166667 -8.00956e-012 -5.22761e-011 -3.41562e-009 -5.22827e-011 -3.41558e-009            -1  1.87256e-005
       15275.7      0.166667 -1.46091e-011 -5.22871e-011 -3.43138e-009 -5.22881e-011 -3.43121e-009            -1   1.8812e-005
       15346.2      0.166667  9.84515e-012 -5.22983e-011 -3.44722e-009 -5.22967e-011 -3.44738e-009            -1  1.88989e-005
         15417      0.166667 -2.12969e-011 -5.23097e-011 -3.46313e-009 -5.23048e-011 -3.46328e-009            -1  1.89861e-005
       15488.2      0.166667   5.1508e-012  -5.2321e-011 -3.47912e-009 -5.23225e-011 -3.47886e-009            -1  1.90737e-005
       15559.7      0.166667 -1.16093e-011 -5.23326e-011 -3.49518e-009 -5.23338e-011  -3.4953e-009            -1  1.91618e-005
       15631.5      0.166667 -6.44989e-011 -5.23443e-011 -3.51131e-009 -5.23481e-011 -3.51117e-009            -1  1.92502e-005
       15703.6      0.166667 -8.49929e-012  -5.2356e-011 -3.52752e-009 -5.23562e-011 -3.52726e-009            -1  1.93391e-005
       15776.1      0.166667 -6.11267e-011 -5.23677e-011  -3.5438e-009  -5.2367e-011 -3.54389e-009            -1  1.94283e-005
       15848.9      0.166667 -4.19933e-011 -5.23799e-011 -3.56016e-009  -5.2378e-011 -3.56041e-009            -1   1.9518e-005
       15922.1      0.166667 -2.18329e-011  -5.2392e-011 -3.57659e-009 -5.23882e-011 -3.57678e-009            -1  1.96081e-005
       15995.6      0.166667 -5.19261e-011 -5.24042e-011  -3.5931e-009 -5.24037e-011 -3.59336e-009            -1  1.96986e-005
       16069.4      0.166667 -6.68351e-011 -5.24166e-011 -3.60968e-009 -5.24127e-011 -3.60982e-009            -1  1.97895e-005
       16143.6      0.166667  2.41504e-012 -5.24291e-011 -3.62635e-009 -5.24286e-011  -3.6264e-009            -1  1.98809e-005
       16218.1      0.166667   1.4352e-011 -5.24415e-011 -3.64308e-009 -5.24437e-011 -3.64298e-009            -1  1.99727e-005
         16293      0.166667  8.13052e-013 -5.24542e-011  -3.6599e-009  -5.2448e-011 -3.65992e-009            -1  2.00648e-005
       16368.2      0.166667  -4.1734e-011  -5.2467e-011 -3.67679e-009 -5.24643e-011 -3.67683e-009            -1  2.01575e-005
       16443.7      0.166667 -1.87103e-012   -5.248e-011 -3.69376e-009 -5.24773e-011 -3.69366e-009            -1  2.02505e-005
       16519.6      0.166667  -4.3176e-011 -5.24928e-011 -3.71081e-009 -5.24959e-011 -3.71063e-009            -1   2.0344e-005
       16595.9      0.166667 -6.48236e-012 -5.25059e-011 -3.72794e-009 -5.25039e-011  -3.7279e-009            -1  2.04379e-005
       16672.5      0.166667 -1.46933e-011 -5.25193e-011 -3.74515e-009 -5.25194e-011 -3.74534e-009            -1  2.05322e-005
       16749.4      0.166667   1.1777e-011 -5.25326e-011 -3.76244e-009 -5.25303e-011 -3.76228e-009            -1   2.0627e-005
       16826.7      0.166667  7.50031e-012 -5.25459e-011  -3.7798e-009 -5.25504e-011 -3.77981e-009            -1  2.07222e-005
       16904.4      0.166667 -3.54763e-011 -5.25596e-011 -3.79725e-009 -5.25591e-011 -3.79722e-009            -1  2.08178e-005
       16982.4      0.166667  7.52863e-012 -5.25736e-011 -3.81478e-009 -5.25727e-011 -3.81464e-009            -1  2.09139e-005
       17060.8      0.166667 -2.17571e-011 -5.25874e-011 -3.83239e-009  -5.2592e-011 -3.83244e-009            -1  2.10105e-005
       17139.6      0.166667  1.10747e-011 -5.26013e-011 -3.85007e-009 -5.25989e-011 -3.85004e-009            -1  2.11074e-005
       17218.7      0.166667  2.46799e-011 -5.26154e-011 -3.86785e-009 -5.26163e-011   -3.868e-009            -1  2.12049e-005
       17298.2      0.166667 -1.27687e-011 -5.26298e-011  -3.8857e-009 -5.26277e-011 -3.88562e-009            -1  2.13028e-005
         17378      0.166667 -1.01903e-011 -5.26443e-011 -3.90363e-009 -5.26434e-011 -3.90369e-009            -1  2.14011e-005
       17458.2      0.166667  3.86101e-011 -5.26587e-011 -3.92165e-009 -5.26578e-011 -3.92164e-009            -1  2.14999e-005
       17538.8      0.166667  5.42411e-012 -5.26734e-011 -3.93975e-009 -5.26749e-011 -3.93988e-009            -1  2.15991e-005
       17619.8      0.166667 -9.82642e-013 -5.26883e-011 -3.95794e-009   -5.269e-011 -3.95761e-009            -1  2.16988e-005
       17701.1      0.166667 -1.33214e-011 -5.27031e-011 -3.97621e-009  -5.2703e-011 -3.97639e-009            -1   2.1799e-005
       17782.8      0.166667   1.4393e-011 -5.27181e-011 -3.99456e-009 -5.27185e-011  -3.9944e-009            -1  2.18996e-005
       17864.9      0.166667 -1.83601e-012 -5.27334e-011   -4.013e-009  -5.2734e-011  -4.0129e-009            -1  2.20007e-005
       17947.3      0.166667 -9.83347e-012 -5.27487e-011 -4.03152e-009  -5.2747e-011 -4.03166e-009            -1  2.21022e-005
       18030.2      0.166667 -1.66679e-011 -5.27644e-011 -4.05013e-009  -5.2764e-011 -4.05002e-009            -1  2.22042e-005
       18113.4      0.166667 -2.94078e-011   -5.278e-011 -4.06883e-009 -5.27824e-011 -4.06881e-009            -1  2.23067e-005
         18197      0.166667 -2.06366e-011 -5.27958e-011 -4.08761e-009 -5.27962e-011 -4.08766e-009            -1  2.24097e-005
         18281      0.166667 -4.49657e-012 -5.28117e-011 -4.10647e-009   -5.281e-011 -4.10664e-009            -1  2.25131e-005
       18365.4      0.166667 -2.20383e-012 -5.28279e-011 -4.12543e-009  -5.2828e-011 -4.12545e-009            -1   2.2617e-005
       18450.2      0.166667  1.01213e-011 -5.28439e-011 -4.14447e-009 -5.28445e-011 -4.14431e-009            -1  2.27214e-005
       18535.3      0.166667  2.80633e-011 -5.28603e-011  -4.1636e-009 -5.28601e-011 -4.16353e-009            -1  2.28263e-005
       18620.9      0.166667  1.71425e-011 -5.28769e-011 -4.18282e-009   -5.288e-011 -4.18257e-009            -1  2.29317e-005
       18706.8      0.166667 -5.29723e-013 -5.28935e-011 -4.20213e-009 -5.28935e-011 -4.20217e-009            -1  2.30375e-005
       18793.2      0.166667  1.13057e-011 -5.29103e-011 -4.22152e-009 -5.29117e-011 -4.22129e-009            -1  2.31439e-005
       18879.9      0.166667   2.2532e-012 -5.29275e-011 -4.24101e-009 -5.29258e-011 -4.24103e-009            -1  2.32507e-005
       18967.1      0.166667  2.09511e-011 -5.29446e-011 -4.26058e-009 -5.29429e-011 -4.26046e-009            -1   2.3358e-005
       19054.6      0.166667  2.23092e-011 -5.29619e-011 -4.28025e-009 -5.29609e-011 -4.28003e-009            -1  2.34658e-005
       19142.6      0.166667  1.16386e-011 -5.29794e-011 -4.30001e-009  -5.2981e-011 -4.30001e-009            -1  2.35741e-005
       19230.9      0.166667 -3.66976e-011  -5.2997e-011 -4.31985e-009 -5.29981e-011 -4.31978e-009            -1  2.36829e-005
       19319.7      0.166667  1.34778e-011 -5.30148e-011 -4.33979e-009 -5.30128e-011  -4.3396e-009            -1  2.37923e-005
       19408.9      0.166667 -1.29072e-011 -5.30326e-011 -4.35983e-009 -5.30322e-011 -4.35976e-009            -1  2.39021e-005
       19498.4      0.166667 -1.94656e-011 -5.30509e-011 -4.37995e-009 -5.30503e-011 -4.37973e-009            -1  2.40124e-005
       19588.4      0.166667 -2.91817e-011 -5.30693e-011 -4.40017e-009 -5.30679e-011 -4.40019e-009            -1  2.41232e-005
       19678.9      0.166667 -1.37487e-012 -5.30877e-011 -4.42048e-009 -5.30893e-011 -4.42038e-009            -1  2.42346e-005
       19769.7      0.166667  1.00225e-011 -5.31064e-011 -4.44088e-009 -5.31047e-011 -4.44096e-009            -1  2.43465e-005
       19860.9      0.166667    3.248e-012 -5.31253e-011 -4.46138e-009 -5.31271e-011 -4.46112e-009            -1  2.44588e-005
       19952.6      0.166667 -2.23951e-012  -5.3144e-011 -4.48197e-009 -5.31435e-011 -4.48169e-009            -1  2.45717e-005
       20044.7      0.166667 -2.44437e-013  -5.3163e-011 -4.50266e-009 -5.31638e-011  -4.5026e-009            -1  2.46851e-005
       20137.2      0.166667 -2.87827e-011 -5.31826e-011 -4.52344e-009 -5.31809e-011 -4.52344e-009            -1  2.47991e-005
       20230.2      0.166667  1.38381e-011 -5.32021e-011 -4.54432e-009 -5.32055e-011 -4.54463e-009            -1  2.49136e-005
       20323.6      0.166667   4.6275e-011 -5.32218e-011  -4.5653e-009 -5.32245e-011 -4.56535e-009            -1  2.50286e-005
