! NPort=2 DATA=4501 NOISE=0 GROUPDELAY=0 COMPLEX_DATAFORMAT=RI
! NumOfBlock=1 NumOfParam=0
!
! .MODEL Smodel S TSTONEFILE=./link_rx/link_rx_s1/lr10000_10000000000000dec_0_1.s2p TYPE=S
!   -- The above .MODEL line can be used for the S element in the netlist.
!
!
# Hz S RI R             50
         10000     -0.333333  2.09439e-006      0.666667  -2.0944e-006      0.666667 -2.09442e-006     -0.333333  -2.0211e-011
       10046.2     -0.333333  2.10408e-006      0.666667 -2.10404e-006      0.666667 -2.10408e-006     -0.333333  -2.0211e-011
       10092.5     -0.333333  2.11374e-006      0.666667 -2.11381e-006      0.666667 -2.11376e-006     -0.333333  1.01055e-011
       10139.1     -0.333333  2.12355e-006      0.666667 -2.12351e-006      0.666667 -2.12352e-006     -0.333333  1.01055e-011
       10185.9     -0.333333  2.13335e-006      0.666667 -2.13331e-006      0.666667 -2.13333e-006     -0.333333             0
       10232.9     -0.333333  2.14321e-006      0.666667 -2.14315e-006      0.666667 -2.14317e-006     -0.333333  1.01055e-011
       10280.2     -0.333333  2.15305e-006      0.666667  -2.1531e-006      0.666667 -2.15309e-006     -0.333333  -2.0211e-011
       10327.6     -0.333333  2.16304e-006      0.666667 -2.16298e-006      0.666667 -2.16297e-006     -0.333333   4.0422e-011
       10375.3     -0.333333  2.17296e-006      0.666667 -2.17303e-006      0.666667 -2.17302e-006     -0.333333 -3.03165e-011
       10423.2     -0.333333  2.18304e-006      0.666667 -2.18301e-006      0.666667 -2.18303e-006     -0.333333 -1.01055e-011
       10471.3     -0.333333  2.19309e-006      0.666667 -2.19311e-006      0.666667 -2.19309e-006     -0.333333  1.01055e-011
       10519.6     -0.333333  2.20323e-006      0.666667 -2.20322e-006      0.666667 -2.20322e-006     -0.333333             0
       10568.2     -0.333333   2.2134e-006      0.666667 -2.21339e-006      0.666667  -2.2134e-006     -0.333333 -1.01055e-011
         10617     -0.333333  2.22363e-006      0.666667 -2.22359e-006      0.666667 -2.22358e-006     -0.333333  3.03165e-011
         10666     -0.333333  2.23383e-006      0.666667 -2.23392e-006      0.666667 -2.23386e-006     -0.333333  1.01055e-011
       10715.2     -0.333333  2.24416e-006      0.666667 -2.24421e-006      0.666667 -2.24418e-006     -0.333333             0
       10764.7     -0.333333  2.25451e-006      0.666667 -2.25458e-006      0.666667 -2.25454e-006     -0.333333             0
       10814.3     -0.333333  2.26493e-006      0.666667 -2.26496e-006      0.666667 -2.26494e-006     -0.333333  1.01055e-011
       10864.3     -0.333333  2.27541e-006      0.666667 -2.27539e-006      0.666667 -2.27539e-006     -0.333333  1.01055e-011
       10914.4     -0.333333  2.28589e-006      0.666667 -2.28592e-006      0.666667 -2.28591e-006     -0.333333             0
       10964.8     -0.333333  2.29646e-006      0.666667 -2.29645e-006      0.666667 -2.29647e-006     -0.333333 -1.01055e-011
       11015.4     -0.333333  2.30707e-006      0.666667 -2.30704e-006      0.666667 -2.30705e-006     -0.333333  1.01055e-011
       11066.2     -0.333333  2.31774e-006      0.666667 -2.31768e-006      0.666667 -2.31769e-006     -0.333333   2.0211e-011
       11117.3     -0.333333  2.32834e-006      0.666667 -2.32847e-006      0.666667 -2.32842e-006     -0.333333 -1.01055e-011
       11168.6     -0.333333  2.33913e-006      0.666667 -2.33918e-006      0.666667 -2.33914e-006     -0.333333  1.01055e-011
       11220.2     -0.333333  2.34997e-006      0.666667 -2.34993e-006      0.666667 -2.34993e-006     -0.333333   2.0211e-011
         11272     -0.333333  2.36079e-006      0.666666 -2.36081e-006      0.666666  -2.3608e-006     -0.333333             0
         11324     -0.333333  2.37167e-006      0.666666 -2.37172e-006      0.666666 -2.37172e-006     -0.333333 -3.03165e-011
       11376.3     -0.333333  2.38267e-006      0.666666 -2.38261e-006      0.666666 -2.38265e-006     -0.333333 -1.01055e-011
       11428.8     -0.333333  2.39365e-006      0.666666 -2.39363e-006      0.666666 -2.39363e-006     -0.333333  1.01055e-011
       11481.5     -0.333333  2.40473e-006      0.666666 -2.40464e-006      0.666666 -2.40469e-006     -0.333333             0
       11534.5     -0.333333  2.41577e-006      0.666666  -2.4158e-006      0.666666 -2.41579e-006     -0.333333             0
       11587.8     -0.333333  2.42696e-006      0.666666 -2.42692e-006      0.666666 -2.42696e-006     -0.333333  -2.0211e-011
       11641.3     -0.333333  2.43816e-006      0.666666 -2.43812e-006      0.666666 -2.43815e-006     -0.333333 -1.01055e-011
         11695     -0.333333   2.4494e-006      0.666666 -2.44939e-006      0.666666 -2.44939e-006     -0.333333             0
         11749     -0.333333  2.46069e-006      0.666666 -2.46071e-006      0.666666 -2.46071e-006     -0.333333 -1.01055e-011
       11803.2     -0.333333  2.47205e-006      0.666666 -2.47207e-006      0.666666 -2.47206e-006     -0.333333             0
       11857.7     -0.333333  2.48351e-006      0.666666 -2.48343e-006      0.666666 -2.48349e-006     -0.333333  -2.0211e-011
       11912.4     -0.333333  2.49494e-006      0.666666 -2.49493e-006      0.666666 -2.49493e-006     -0.333333             0
       11967.4     -0.333333  2.50643e-006      0.666666 -2.50647e-006      0.666666 -2.50641e-006     -0.333333   4.0422e-011
       12022.6     -0.333333  2.51803e-006      0.666666 -2.51801e-006      0.666666 -2.51803e-006     -0.333333 -1.01055e-011
       12078.1     -0.333333  2.52959e-006      0.666666 -2.52969e-006      0.666666 -2.52966e-006     -0.333333  -2.0211e-011
       12133.9     -0.333333  2.54132e-006      0.666666 -2.54131e-006      0.666666 -2.54135e-006     -0.333333 -3.03165e-011
       12189.9     -0.333333  2.55306e-006      0.666666 -2.55303e-006      0.666666 -2.55304e-006     -0.333333  1.01055e-011
       12246.2     -0.333333  2.56484e-006      0.666666 -2.56482e-006      0.666666 -2.56481e-006     -0.333333   2.0211e-011
       12302.7     -0.333333  2.57666e-006      0.666666 -2.57668e-006      0.666666 -2.57669e-006     -0.333333  -2.0211e-011
       12359.5     -0.333333  2.58856e-006      0.666666 -2.58856e-006      0.666666 -2.58855e-006     -0.333333  1.01055e-011
       12416.5     -0.333333  2.60049e-006      0.666666 -2.60053e-006      0.666666 -2.60052e-006     -0.333333 -1.01055e-011
       12473.8     -0.333333  2.61249e-006      0.666666 -2.61253e-006      0.666666 -2.61252e-006     -0.333333 -1.01055e-011
       12531.4     -0.333333  2.62459e-006      0.666666 -2.62456e-006      0.666666 -2.62454e-006     -0.333333  3.03165e-011
       12589.3     -0.333333  2.63669e-006      0.666666 -2.63669e-006      0.666666 -2.63669e-006     -0.333333             0
       12647.4     -0.333333  2.64884e-006      0.666666 -2.64887e-006      0.666666 -2.64886e-006     -0.333333             0
       12705.7     -0.333333  2.66105e-006      0.666666 -2.66112e-006      0.666666 -2.66108e-006     -0.333333             0
       12764.4     -0.333333  2.67337e-006      0.666666 -2.67337e-006      0.666666 -2.67337e-006     -0.333333             0
       12823.3     -0.333333   2.6857e-006      0.666666 -2.68572e-006      0.666666 -2.68572e-006     -0.333333 -1.01055e-011
       12882.5     -0.333333  2.69808e-006      0.666666 -2.69813e-006      0.666666 -2.69809e-006     -0.333333  1.01055e-011
         12942     -0.333333  2.71058e-006      0.666666 -2.71054e-006      0.666666 -2.71056e-006     -0.333333             0
       13001.7     -0.333333  2.72309e-006      0.666666 -2.72305e-006      0.666666 -2.72309e-006     -0.333333  -2.0211e-011
       13061.7     -0.333333  2.73564e-006      0.666666 -2.73564e-006      0.666666 -2.73564e-006     -0.333333             0
         13122     -0.333333  2.74828e-006      0.666666 -2.74825e-006      0.666666 -2.74827e-006     -0.333333             0
       13182.6     -0.333333  2.76092e-006      0.666666 -2.76098e-006      0.666666 -2.76095e-006     -0.333333             0
       13243.4     -0.333333  2.77367e-006      0.666666 -2.77372e-006      0.666666 -2.77369e-006     -0.333333             0
       13304.5     -0.333333   2.7865e-006      0.666666 -2.78649e-006      0.666666 -2.78648e-006     -0.333333   2.0211e-011
         13366     -0.333333  2.79939e-006      0.666666 -2.79932e-006      0.666666 -2.79935e-006     -0.333333  1.01055e-011
       13427.6     -0.333333  2.81228e-006      0.666666 -2.81228e-006      0.666666 -2.81231e-006     -0.333333 -3.03165e-011
       13489.6     -0.333333  2.82527e-006      0.666666 -2.82525e-006      0.666666 -2.82526e-006     -0.333333             0
       13551.9     -0.333333  2.83831e-006      0.666666 -2.83829e-006      0.666666  -2.8383e-006     -0.333333             0
       13614.4     -0.333333  2.85138e-006      0.666666 -2.85143e-006      0.666666 -2.85141e-006     -0.333333 -1.01055e-011
       13677.3     -0.333333  2.86456e-006      0.666666 -2.86456e-006      0.666666 -2.86455e-006     -0.333333  1.01055e-011
       13740.4     -0.333333  2.87781e-006      0.666666 -2.87776e-006      0.666666 -2.87779e-006     -0.333333             0
       13803.8     -0.333333  2.89104e-006      0.666666  -2.8911e-006      0.666666  -2.8911e-006     -0.333333 -3.03165e-011
       13867.6     -0.333333  2.90443e-006      0.666666  -2.9044e-006      0.666666  -2.9044e-006     -0.333333  1.01055e-011
       13931.6     -0.333333   2.9178e-006      0.666666 -2.91784e-006      0.666666 -2.91782e-006     -0.333333             0
       13995.9     -0.333333  2.93128e-006      0.666666  -2.9313e-006      0.666666 -2.93129e-006     -0.333333             0
       14060.5     -0.333333  2.94477e-006      0.666666 -2.94486e-006      0.666666 -2.94486e-006     -0.333333  -4.0422e-011
       14125.4     -0.333333   2.9584e-006      0.666666 -2.95842e-006      0.666666 -2.95843e-006     -0.333333  -2.0211e-011
       14190.6     -0.333333  2.97209e-006      0.666666 -2.97205e-006      0.666666 -2.97207e-006     -0.333333             0
       14256.1     -0.333333   2.9858e-006      0.666666 -2.98577e-006      0.666666 -2.98581e-006     -0.333333  -2.0211e-011
       14321.9     -0.333333  2.99956e-006      0.666666 -2.99957e-006      0.666666 -2.99957e-006     -0.333333             0
         14388     -0.333333  3.01341e-006      0.666666 -3.01342e-006      0.666666  -3.0134e-006     -0.333333  1.01055e-011
       14454.4     -0.333333  3.02728e-006      0.666666 -3.02736e-006      0.666666 -3.02734e-006     -0.333333  -2.0211e-011
       14521.1     -0.333333  3.04128e-006      0.666666 -3.04131e-006      0.666666 -3.04129e-006     -0.333333  1.01055e-011
       14588.1     -0.333333  3.05534e-006      0.666666 -3.05533e-006      0.666666 -3.05533e-006     -0.333333             0
       14655.5     -0.333333  3.06945e-006      0.666666 -3.06942e-006      0.666666 -3.06944e-006     -0.333333             0
       14723.1     -0.333333   3.0836e-006      0.666666 -3.08361e-006      0.666666  -3.0836e-006     -0.333333             0
       14791.1     -0.333333   3.0979e-006      0.666666 -3.09777e-006      0.666666 -3.09781e-006     -0.333333  3.03165e-011
       14859.4     -0.333333  3.11214e-006      0.666666 -3.11213e-006      0.666666 -3.11213e-006     -0.333333  1.01055e-011
       14927.9     -0.333333  3.12648e-006      0.666666 -3.12652e-006      0.666666 -3.12651e-006     -0.333333 -1.01055e-011
       14996.8     -0.333333  3.14091e-006      0.666666 -3.14095e-006      0.666666 -3.14094e-006     -0.333333 -1.01055e-011
       15066.1     -0.333333  3.15542e-006      0.666666 -3.15544e-006      0.666666 -3.15544e-006     -0.333333 -1.01055e-011
       15135.6     -0.333333     3.17e-006      0.666666 -3.16999e-006      0.666666 -3.17001e-006     -0.333333 -1.01055e-011
       15205.5     -0.333333  3.18463e-006      0.666666 -3.18463e-006      0.666666 -3.18463e-006     -0.333333             0
       15275.7     -0.333333  3.19933e-006      0.666666 -3.19932e-006      0.666666 -3.19932e-006     -0.333333  1.01055e-011
       15346.2     -0.333333  3.21409e-006      0.666666 -3.21409e-006      0.666666 -3.21409e-006     -0.333333             0
         15417     -0.333333  3.22893e-006      0.666666 -3.22893e-006      0.666666 -3.22894e-006     -0.333333 -1.01055e-011
       15488.2     -0.333333  3.24384e-006      0.666666 -3.24382e-006      0.666666 -3.24382e-006     -0.333333  1.01055e-011
       15559.7     -0.333333  3.25881e-006      0.666666  -3.2588e-006      0.666666 -3.25883e-006     -0.333333  -2.0211e-011
       15631.5     -0.333333  3.27383e-006      0.666666 -3.27387e-006      0.666666 -3.27385e-006     -0.333333 -5.05275e-012
       15703.6     -0.333333  3.28896e-006      0.666666 -3.28895e-006      0.666666 -3.28897e-006     -0.333333 -1.01055e-011
       15776.1     -0.333333  3.30417e-006      0.666666 -3.30411e-006      0.666666 -3.30414e-006     -0.333333  5.05275e-012
       15848.9     -0.333333  3.31939e-006      0.666666 -3.31939e-006      0.666666 -3.31937e-006     -0.333333   2.0211e-011
       15922.1     -0.333333  3.33471e-006      0.666666 -3.33471e-006      0.666666  -3.3347e-006     -0.333333  1.01055e-011
       15995.6     -0.333333   3.3501e-006      0.666666 -3.35011e-006      0.666666 -3.35011e-006     -0.333333 -5.05275e-012
       16069.4     -0.333333  3.36557e-006      0.666666 -3.36556e-006      0.666666 -3.36558e-006     -0.333333 -1.01055e-011
       16143.6     -0.333333  3.38109e-006      0.666666 -3.38112e-006      0.666666 -3.38108e-006     -0.333333   2.0211e-011
       16218.1     -0.333333  3.39668e-006      0.666666 -3.39674e-006      0.666666  -3.3967e-006     -0.333333  1.01055e-011
         16293     -0.333333  3.41237e-006      0.666666  -3.4124e-006      0.666666 -3.41238e-006     -0.333333  5.05275e-012
       16368.2     -0.333333  3.42813e-006      0.666666 -3.42815e-006      0.666666 -3.42815e-006     -0.333333 -5.05275e-012
       16443.7     -0.333333  3.44397e-006      0.666666 -3.44395e-006      0.666666 -3.44395e-006     -0.333333  1.51582e-011
       16519.6     -0.333333  3.45986e-006      0.666666 -3.45986e-006      0.666666 -3.45987e-006     -0.333333 -5.05275e-012
       16595.9     -0.333333  3.47584e-006      0.666666 -3.47582e-006      0.666666 -3.47583e-006     -0.333333             0
       16672.5     -0.333333  3.49187e-006      0.666666 -3.49187e-006      0.666666 -3.49188e-006     -0.333333 -5.05275e-012
       16749.4     -0.333333  3.50798e-006      0.666666   -3.508e-006      0.666666   -3.508e-006     -0.333333 -5.05275e-012
       16826.7     -0.333333  3.52419e-006      0.666666 -3.52418e-006      0.666666 -3.52418e-006     -0.333333  5.05275e-012
       16904.4     -0.333333  3.54044e-006      0.666666 -3.54046e-006      0.666666 -3.54046e-006     -0.333333 -1.01055e-011
       16982.4     -0.333333  3.55678e-006      0.666666  -3.5568e-006      0.666666  -3.5568e-006     -0.333333 -1.01055e-011
       17060.8     -0.333333   3.5732e-006      0.666666 -3.57322e-006      0.666666 -3.57322e-006     -0.333333 -1.01055e-011
       17139.6     -0.333333  3.58967e-006      0.666666 -3.58973e-006      0.666666 -3.58969e-006     -0.333333  1.01055e-011
       17218.7     -0.333333  3.60626e-006      0.666666 -3.60629e-006      0.666666 -3.60626e-006     -0.333333  1.01055e-011
       17298.2     -0.333333  3.62294e-006      0.666666  -3.6229e-006      0.666666 -3.62294e-006     -0.333333  -2.0211e-011
         17378     -0.333333  3.63964e-006      0.666666 -3.63965e-006      0.666666 -3.63966e-006     -0.333333 -1.51582e-011
       17458.2     -0.333333  3.65646e-006      0.666666 -3.65642e-006      0.666666 -3.65644e-006     -0.333333  5.05275e-012
       17538.8     -0.333333  3.67331e-006      0.666666 -3.67333e-006      0.666666 -3.67333e-006     -0.333333 -1.51582e-011
       17619.8     -0.333333  3.69028e-006      0.666666 -3.69026e-006      0.666666 -3.69026e-006     -0.333333  1.01055e-011
       17701.1     -0.333333   3.7073e-006      0.666666 -3.70732e-006      0.666666  -3.7073e-006     -0.333333  1.01055e-011
       17782.8     -0.333333  3.72442e-006      0.666666 -3.72442e-006      0.666666 -3.72443e-006     -0.333333 -1.01055e-011
       17864.9     -0.333333  3.74161e-006      0.666666 -3.74161e-006      0.666666 -3.74162e-006     -0.333333 -1.01055e-011
       17947.3     -0.333333  3.75887e-006      0.666666 -3.75889e-006      0.666666 -3.75888e-006     -0.333333  5.05275e-012
       18030.2     -0.333333  3.77621e-006      0.666666 -3.77625e-006      0.666666 -3.77622e-006     -0.333333  1.51582e-011
       18113.4     -0.333333  3.79368e-006      0.666666 -3.79364e-006      0.666666 -3.79367e-006     -0.333333 -5.05275e-012
         18197     -0.333333  3.81119e-006      0.666666 -3.81116e-006      0.666666 -3.81117e-006     -0.333333  5.05275e-012
         18281     -0.333333  3.82875e-006      0.666666 -3.82878e-006      0.666666 -3.82875e-006     -0.333333  1.01055e-011
       18365.4     -0.333333  3.84645e-006      0.666666 -3.84642e-006      0.666666 -3.84643e-006     -0.333333  1.01055e-011
       18450.2     -0.333333  3.86418e-006      0.666666  -3.8642e-006      0.666666 -3.86419e-006     -0.333333             0
       18535.3     -0.333333  3.88205e-006      0.666666 -3.88201e-006      0.666666 -3.88202e-006     -0.333333  5.05275e-012
       18620.9     -0.333333  3.89995e-006      0.666666 -3.89994e-006      0.666666 -3.89995e-006     -0.333333             0
       18706.8     -0.333333  3.91793e-006      0.666666 -3.91796e-006      0.666666 -3.91794e-006     -0.333333  5.05275e-012
       18793.2     -0.333333  3.93604e-006      0.666666 -3.93602e-006      0.666666 -3.93603e-006     -0.333334             0
       18879.9     -0.333333  3.95422e-006      0.666666 -3.95418e-006      0.666666 -3.95422e-006     -0.333334 -1.51582e-011
       18967.1     -0.333333  3.97247e-006      0.666666 -3.97243e-006      0.666666 -3.97245e-006     -0.333334             0
       19054.6     -0.333333  3.99079e-006      0.666666 -3.99078e-006      0.666666  -3.9908e-006     -0.333334 -1.01055e-011
       19142.6     -0.333333  4.00921e-006      0.666666  -4.0092e-006      0.666666 -4.00921e-006     -0.333334             0
       19230.9     -0.333333   4.0277e-006      0.666666 -4.02773e-006      0.666666 -4.02773e-006     -0.333334 -1.51582e-011
       19319.7     -0.333333  4.04629e-006      0.666666 -4.04632e-006      0.666666 -4.04632e-006     -0.333334 -1.01055e-011
       19408.9     -0.333333  4.06498e-006      0.666666 -4.06499e-006      0.666666 -4.06498e-006     -0.333334             0
       19498.4     -0.333333  4.08375e-006      0.666666 -4.08374e-006      0.666666 -4.08375e-006     -0.333334 -5.05275e-012
       19588.4     -0.333333   4.1026e-006      0.666666 -4.10258e-006      0.666666  -4.1026e-006     -0.333334 -5.05275e-012
       19678.9     -0.333333   4.1215e-006      0.666666 -4.12156e-006      0.666666 -4.12155e-006     -0.333334 -1.51582e-011
       19769.7     -0.333333  4.14058e-006      0.666666 -4.14053e-006      0.666666 -4.14054e-006     -0.333334  1.51582e-011
       19860.9     -0.333333  4.15967e-006      0.666666 -4.15966e-006      0.666666 -4.15967e-006     -0.333334             0
       19952.6     -0.333333  4.17888e-006      0.666666 -4.17885e-006      0.666666 -4.17887e-006     -0.333334             0
       20044.7     -0.333333  4.19818e-006      0.666666 -4.19813e-006      0.666666 -4.19814e-006     -0.333334   2.0211e-011
       20137.2     -0.333333  4.21752e-006      0.666666 -4.21755e-006      0.666666 -4.21753e-006     -0.333334  5.05275e-012
       20230.2     -0.333333  4.23702e-006      0.666666 -4.23698e-006      0.666666 -4.23701e-006     -0.333334 -1.01055e-011
       20323.6     -0.333333  4.25655e-006      0.666666 -4.25657e-006      0.666666 -4.25657e-006     -0.333334 -1.01055e-011
