! NPort=2 DATA=4501 NOISE=0 GROUPDELAY=0 COMPLEX_DATAFORMAT=RI
! NumOfBlock=1 NumOfParam=0
!
! .MODEL Smodel S TSTONEFILE=./link_rx/link_rx_l1/lr10000_10000000000000dec_0_1.s2p TYPE=S
!   -- The above .MODEL line can be used for the S element in the netlist.
!
!
# Hz S RI R             50
         10000     -0.274365   0.000371083      0.725069  -0.000224351      0.725069  -0.000224351     -0.274609   0.000114433
       10046.2     -0.274364   0.000372024      0.725069  -0.000224948      0.725069  -0.000224948     -0.274608   0.000114711
       10092.5     -0.274363   0.000372967      0.725068  -0.000225546      0.725068  -0.000225546     -0.274608    0.00011499
       10139.1     -0.274362   0.000373913      0.725068  -0.000226145      0.725068  -0.000226145     -0.274608   0.000115269
       10185.9     -0.274362   0.000374861      0.725068  -0.000226747      0.725068  -0.000226747     -0.274608    0.00011555
       10232.9     -0.274361   0.000375812      0.725067   -0.00022735      0.725067   -0.00022735     -0.274607   0.000115831
       10280.2      -0.27436   0.000376766      0.725067  -0.000227955      0.725067  -0.000227955     -0.274607   0.000116113
       10327.6     -0.274359   0.000377722      0.725066  -0.000228562      0.725066  -0.000228562     -0.274607   0.000116395
       10375.3     -0.274358   0.000378681      0.725066   -0.00022917      0.725066   -0.00022917     -0.274607   0.000116678
       10423.2     -0.274358   0.000379642      0.725065   -0.00022978      0.725065   -0.00022978     -0.274606   0.000116962
       10471.3     -0.274357   0.000380606      0.725065  -0.000230393      0.725065  -0.000230393     -0.274606   0.000117247
       10519.6     -0.274356   0.000381573      0.725064  -0.000231006      0.725064  -0.000231006     -0.274606   0.000117532
       10568.2     -0.274355   0.000382542      0.725064  -0.000231622      0.725064  -0.000231622     -0.274606   0.000117819
         10617     -0.274355   0.000383514      0.725063   -0.00023224      0.725063   -0.00023224     -0.274605   0.000118105
         10666     -0.274354   0.000384488      0.725063  -0.000232859      0.725063  -0.000232859     -0.274605   0.000118393
       10715.2     -0.274353   0.000385466      0.725063   -0.00023348      0.725063   -0.00023348     -0.274605   0.000118681
       10764.7     -0.274352   0.000386446      0.725062  -0.000234103      0.725062  -0.000234103     -0.274605    0.00011897
       10814.3     -0.274351   0.000387428      0.725062  -0.000234728      0.725062  -0.000234728     -0.274604    0.00011926
       10864.3     -0.274351   0.000388413      0.725061  -0.000235354      0.725061  -0.000235354     -0.274604   0.000119551
       10914.4      -0.27435   0.000389401      0.725061  -0.000235983      0.725061  -0.000235983     -0.274604   0.000119842
       10964.8     -0.274349   0.000390392       0.72506  -0.000236613       0.72506  -0.000236613     -0.274604   0.000120134
       11015.4     -0.274348   0.000391386       0.72506  -0.000237245       0.72506  -0.000237245     -0.274603   0.000120427
       11066.2     -0.274347   0.000392382      0.725059  -0.000237879      0.725059  -0.000237879     -0.274603    0.00012072
       11117.3     -0.274346   0.000393381      0.725059  -0.000238515      0.725059  -0.000238515     -0.274603   0.000121015
       11168.6     -0.274346   0.000394382      0.725058  -0.000239152      0.725058  -0.000239152     -0.274603    0.00012131
       11220.2     -0.274345   0.000395386      0.725058  -0.000239792      0.725058  -0.000239792     -0.274602   0.000121605
         11272     -0.274344   0.000396394      0.725058  -0.000240434      0.725058  -0.000240434     -0.274602   0.000121902
         11324     -0.274343   0.000397403      0.725057  -0.000241077      0.725057  -0.000241077     -0.274602   0.000122199
       11376.3     -0.274342   0.000398416      0.725057  -0.000241722      0.725057  -0.000241722     -0.274601   0.000122497
       11428.8     -0.274342   0.000399431      0.725056  -0.000242369      0.725056  -0.000242369     -0.274601   0.000122796
       11481.5     -0.274341    0.00040045      0.725056  -0.000243018      0.725056  -0.000243018     -0.274601   0.000123096
       11534.5      -0.27434   0.000401471      0.725055  -0.000243669      0.725055  -0.000243669     -0.274601   0.000123396
       11587.8     -0.274339   0.000402494      0.725055  -0.000244322      0.725055  -0.000244322       -0.2746   0.000123697
       11641.3     -0.274338   0.000403521      0.725054  -0.000244977      0.725054  -0.000244977       -0.2746   0.000123999
         11695     -0.274337    0.00040455      0.725054  -0.000245634      0.725054  -0.000245634       -0.2746   0.000124301
         11749     -0.274337   0.000405583      0.725053  -0.000246292      0.725053  -0.000246292       -0.2746   0.000124605
       11803.2     -0.274336   0.000406618      0.725053  -0.000246953      0.725053  -0.000246953     -0.274599   0.000124909
       11857.7     -0.274335   0.000407656      0.725052  -0.000247616      0.725052  -0.000247616     -0.274599   0.000125214
       11912.4     -0.274334   0.000408696      0.725052   -0.00024828      0.725052   -0.00024828     -0.274599    0.00012552
       11967.4     -0.274333    0.00040974      0.725051  -0.000248947      0.725051  -0.000248947     -0.274599   0.000125826
       12022.6     -0.274332   0.000410787      0.725051  -0.000249615      0.725051  -0.000249615     -0.274598   0.000126134
       12078.1     -0.274332   0.000411836       0.72505  -0.000250285       0.72505  -0.000250285     -0.274598   0.000126442
       12133.9     -0.274331   0.000412888       0.72505  -0.000250958       0.72505  -0.000250958     -0.274598   0.000126751
       12189.9      -0.27433   0.000413944      0.725049  -0.000251632      0.725049  -0.000251632     -0.274597    0.00012706
       12246.2     -0.274329   0.000415002      0.725049  -0.000252309      0.725049  -0.000252309     -0.274597   0.000127371
       12302.7     -0.274328   0.000416063      0.725048  -0.000252987      0.725048  -0.000252987     -0.274597   0.000127682
       12359.5     -0.274327   0.000417127      0.725048  -0.000253668      0.725048  -0.000253668     -0.274597   0.000127994
       12416.5     -0.274326   0.000418194      0.725047   -0.00025435      0.725047   -0.00025435     -0.274596   0.000128307
       12473.8     -0.274326   0.000419264      0.725047  -0.000255034      0.725047  -0.000255034     -0.274596   0.000128621
       12531.4     -0.274325   0.000420336      0.725047  -0.000255721      0.725047  -0.000255721     -0.274596   0.000128935
       12589.3     -0.274324   0.000421412      0.725046   -0.00025641      0.725046   -0.00025641     -0.274595   0.000129251
       12647.4     -0.274323   0.000422491      0.725046    -0.0002571      0.725046    -0.0002571     -0.274595   0.000129567
       12705.7     -0.274322   0.000423573      0.725045  -0.000257793      0.725045  -0.000257793     -0.274595   0.000129884
       12764.4     -0.274321   0.000424657      0.725045  -0.000258487      0.725045  -0.000258487     -0.274595   0.000130202
       12823.3      -0.27432   0.000425745      0.725044  -0.000259184      0.725044  -0.000259184     -0.274594    0.00013052
       12882.5      -0.27432   0.000426836      0.725044  -0.000259883      0.725044  -0.000259883     -0.274594    0.00013084
         12942     -0.274319   0.000427929      0.725043  -0.000260584      0.725043  -0.000260584     -0.274594    0.00013116
       13001.7     -0.274318   0.000429026      0.725043  -0.000261287      0.725043  -0.000261287     -0.274594   0.000131481
       13061.7     -0.274317   0.000430126      0.725042  -0.000261992      0.725042  -0.000261992     -0.274593   0.000131803
         13122     -0.274316   0.000431229      0.725042  -0.000262699      0.725042  -0.000262699     -0.274593   0.000132125
       13182.6     -0.274315   0.000432335      0.725041  -0.000263408      0.725041  -0.000263408     -0.274593   0.000132449
       13243.4     -0.274314   0.000433444      0.725041   -0.00026412      0.725041   -0.00026412     -0.274592   0.000132773
       13304.5     -0.274313   0.000434556       0.72504  -0.000264833       0.72504  -0.000264833     -0.274592   0.000133098
         13366     -0.274313   0.000435671       0.72504  -0.000265549       0.72504  -0.000265549     -0.274592   0.000133424
       13427.6     -0.274312   0.000436789      0.725039  -0.000266267      0.725039  -0.000266267     -0.274592   0.000133751
       13489.6     -0.274311   0.000437911      0.725039  -0.000266987      0.725039  -0.000266987     -0.274591   0.000134079
       13551.9      -0.27431   0.000439035      0.725038  -0.000267709      0.725038  -0.000267709     -0.274591   0.000134408
       13614.4     -0.274309   0.000440163      0.725037  -0.000268433      0.725037  -0.000268433     -0.274591   0.000134737
       13677.3     -0.274308   0.000441293      0.725037  -0.000269159      0.725037  -0.000269159      -0.27459   0.000135067
       13740.4     -0.274307   0.000442427      0.725036  -0.000269888      0.725036  -0.000269888      -0.27459   0.000135398
       13803.8     -0.274306   0.000443564      0.725036  -0.000270619      0.725036  -0.000270619      -0.27459    0.00013573
       13867.6     -0.274305   0.000444704      0.725035  -0.000271352      0.725035  -0.000271352      -0.27459   0.000136063
       13931.6     -0.274304   0.000445848      0.725035  -0.000272087      0.725035  -0.000272087     -0.274589   0.000136397
       13995.9     -0.274304   0.000446994      0.725034  -0.000272824      0.725034  -0.000272824     -0.274589   0.000136731
       14060.5     -0.274303   0.000448144      0.725034  -0.000273564      0.725034  -0.000273564     -0.274589   0.000137067
       14125.4     -0.274302   0.000449297      0.725033  -0.000274305      0.725033  -0.000274305     -0.274588   0.000137403
       14190.6     -0.274301   0.000450453      0.725033  -0.000275049      0.725033  -0.000275049     -0.274588    0.00013774
       14256.1       -0.2743   0.000451612      0.725032  -0.000275796      0.725032  -0.000275796     -0.274588   0.000138078
       14321.9     -0.274299   0.000452775      0.725032  -0.000276544      0.725032  -0.000276544     -0.274587   0.000138417
         14388     -0.274298    0.00045394      0.725031  -0.000277295      0.725031  -0.000277295     -0.274587   0.000138757
       14454.4     -0.274297   0.000455109      0.725031  -0.000278048      0.725031  -0.000278048     -0.274587   0.000139097
       14521.1     -0.274296   0.000456282       0.72503  -0.000278803       0.72503  -0.000278803     -0.274587   0.000139439
       14588.1     -0.274295   0.000457457       0.72503   -0.00027956       0.72503   -0.00027956     -0.274586   0.000139781
       14655.5     -0.274294   0.000458636      0.725029   -0.00028032      0.725029   -0.00028032     -0.274586   0.000140125
       14723.1     -0.274293   0.000459818      0.725029  -0.000281082      0.725029  -0.000281082     -0.274586   0.000140469
       14791.1     -0.274292   0.000461004      0.725028  -0.000281846      0.725028  -0.000281846     -0.274585   0.000140814
       14859.4     -0.274292   0.000462193      0.725028  -0.000282613      0.725028  -0.000282613     -0.274585    0.00014116
       14927.9     -0.274291   0.000463385      0.725027  -0.000283382      0.725027  -0.000283382     -0.274585   0.000141507
       14996.8      -0.27429    0.00046458      0.725026  -0.000284153      0.725026  -0.000284153     -0.274584   0.000141854
       15066.1     -0.274289   0.000465779      0.725026  -0.000284927      0.725026  -0.000284927     -0.274584   0.000142203
       15135.6     -0.274288   0.000466981      0.725025  -0.000285703      0.725025  -0.000285703     -0.274584   0.000142553
       15205.5     -0.274287   0.000468186      0.725025  -0.000286481      0.725025  -0.000286481     -0.274584   0.000142903
       15275.7     -0.274286   0.000469395      0.725024  -0.000287261      0.725024  -0.000287261     -0.274583   0.000143254
       15346.2     -0.274285   0.000470607      0.725024  -0.000288044      0.725024  -0.000288044     -0.274583   0.000143607
         15417     -0.274284   0.000471823      0.725023   -0.00028883      0.725023   -0.00028883     -0.274583    0.00014396
       15488.2     -0.274283   0.000473042      0.725023  -0.000289617      0.725023  -0.000289617     -0.274582   0.000144314
       15559.7     -0.274282   0.000474265      0.725022  -0.000290407      0.725022  -0.000290407     -0.274582   0.000144669
       15631.5     -0.274281    0.00047549      0.725022    -0.0002912      0.725022    -0.0002912     -0.274582   0.000145025
       15703.6      -0.27428    0.00047672      0.725021  -0.000291994      0.725021  -0.000291994     -0.274581   0.000145382
       15776.1     -0.274279   0.000477952       0.72502  -0.000292792       0.72502  -0.000292792     -0.274581    0.00014574
       15848.9     -0.274278   0.000479189       0.72502  -0.000293591       0.72502  -0.000293591     -0.274581   0.000146098
       15922.1     -0.274277   0.000480428      0.725019  -0.000294393      0.725019  -0.000294393      -0.27458   0.000146458
       15995.6     -0.274276   0.000481672      0.725019  -0.000295198      0.725019  -0.000295198      -0.27458   0.000146819
       16069.4     -0.274275   0.000482918      0.725018  -0.000296005      0.725018  -0.000296005      -0.27458    0.00014718
       16143.6     -0.274274   0.000484168      0.725018  -0.000296814      0.725018  -0.000296814     -0.274579   0.000147543
       16218.1     -0.274273   0.000485422      0.725017  -0.000297626      0.725017  -0.000297626     -0.274579   0.000147906
         16293     -0.274272   0.000486679      0.725017   -0.00029844      0.725017   -0.00029844     -0.274579    0.00014827
       16368.2     -0.274271    0.00048794      0.725016  -0.000299257      0.725016  -0.000299257     -0.274579   0.000148636
       16443.7      -0.27427   0.000489204      0.725015  -0.000300076      0.725015  -0.000300076     -0.274578   0.000149002
       16519.6     -0.274269   0.000490472      0.725015  -0.000300898      0.725015  -0.000300898     -0.274578   0.000149369
       16595.9     -0.274268   0.000491743      0.725014  -0.000301722      0.725014  -0.000301722     -0.274578   0.000149737
       16672.5     -0.274267   0.000493018      0.725014  -0.000302549      0.725014  -0.000302549     -0.274577   0.000150106
       16749.4     -0.274266   0.000494297      0.725013  -0.000303378      0.725013  -0.000303378     -0.274577   0.000150477
       16826.7     -0.274265   0.000495579      0.725013   -0.00030421      0.725013   -0.00030421     -0.274577   0.000150848
       16904.4     -0.274264   0.000496865      0.725012  -0.000305044      0.725012  -0.000305044     -0.274576    0.00015122
       16982.4     -0.274263   0.000498154      0.725011  -0.000305881      0.725011  -0.000305881     -0.274576   0.000151593
       17060.8     -0.274262   0.000499447      0.725011   -0.00030672      0.725011   -0.00030672     -0.274576   0.000151967
       17139.6     -0.274261   0.000500744       0.72501  -0.000307562       0.72501  -0.000307562     -0.274575   0.000152341
       17218.7      -0.27426   0.000502045       0.72501  -0.000308406       0.72501  -0.000308406     -0.274575   0.000152717
       17298.2     -0.274259   0.000503349      0.725009  -0.000309253      0.725009  -0.000309253     -0.274575   0.000153094
         17378     -0.274258   0.000504656      0.725009  -0.000310103      0.725009  -0.000310103     -0.274574   0.000153472
       17458.2     -0.274257   0.000505968      0.725008  -0.000310955      0.725008  -0.000310955     -0.274574   0.000153851
       17538.8     -0.274256   0.000507283      0.725007   -0.00031181      0.725007   -0.00031181     -0.274574   0.000154231
       17619.8     -0.274255   0.000508602      0.725007  -0.000312667      0.725007  -0.000312667     -0.274573   0.000154612
       17701.1     -0.274254   0.000509924      0.725006  -0.000313527      0.725006  -0.000313527     -0.274573   0.000154994
       17782.8     -0.274253   0.000511251      0.725006   -0.00031439      0.725006   -0.00031439     -0.274573   0.000155376
       17864.9     -0.274252   0.000512581      0.725005  -0.000315255      0.725005  -0.000315255     -0.274572    0.00015576
       17947.3     -0.274251   0.000513914      0.725005  -0.000316123      0.725005  -0.000316123     -0.274572   0.000156145
       18030.2      -0.27425   0.000515252      0.725004  -0.000316994      0.725004  -0.000316994     -0.274572   0.000156531
       18113.4     -0.274249   0.000516593      0.725003  -0.000317867      0.725003  -0.000317867     -0.274571   0.000156918
         18197     -0.274248   0.000517939      0.725003  -0.000318743      0.725003  -0.000318743     -0.274571   0.000157306
         18281     -0.274247   0.000519288      0.725002  -0.000319621      0.725002  -0.000319621     -0.274571   0.000157694
       18365.4     -0.274246    0.00052064      0.725002  -0.000320502      0.725002  -0.000320502      -0.27457   0.000158084
       18450.2     -0.274245   0.000521997      0.725001  -0.000321386      0.725001  -0.000321386      -0.27457   0.000158475
       18535.3     -0.274244   0.000523358         0.725  -0.000322273         0.725  -0.000322273      -0.27457   0.000158867
       18620.9     -0.274243   0.000524722         0.725  -0.000323162         0.725  -0.000323162     -0.274569    0.00015926
       18706.8     -0.274242    0.00052609      0.724999  -0.000324055      0.724999  -0.000324055     -0.274569   0.000159654
       18793.2     -0.274241   0.000527462      0.724999  -0.000324949      0.724999  -0.000324949     -0.274569   0.000160049
       18879.9      -0.27424   0.000528838      0.724998  -0.000325847      0.724998  -0.000325847     -0.274568   0.000160445
       18967.1     -0.274239   0.000530218      0.724997  -0.000326747      0.724997  -0.000326747     -0.274568   0.000160842
       19054.6     -0.274238   0.000531602      0.724997   -0.00032765      0.724997   -0.00032765     -0.274568   0.000161241
       19142.6     -0.274237    0.00053299      0.724996  -0.000328556      0.724996  -0.000328556     -0.274567    0.00016164
       19230.9     -0.274236   0.000534382      0.724996  -0.000329465      0.724996  -0.000329465     -0.274567    0.00016204
       19319.7     -0.274234   0.000535777      0.724995  -0.000330376      0.724995  -0.000330376     -0.274567   0.000162441
       19408.9     -0.274233   0.000537177      0.724994  -0.000331291      0.724994  -0.000331291     -0.274566   0.000162844
       19498.4     -0.274232   0.000538581      0.724994  -0.000332208      0.724994  -0.000332208     -0.274566   0.000163247
       19588.4     -0.274231   0.000539988      0.724993  -0.000333128      0.724993  -0.000333128     -0.274566   0.000163651
       19678.9      -0.27423     0.0005414      0.724992   -0.00033405      0.724992   -0.00033405     -0.274565   0.000164057
       19769.7     -0.274229   0.000542816      0.724992  -0.000334976      0.724992  -0.000334976     -0.274565   0.000164463
       19860.9     -0.274228   0.000544236      0.724991  -0.000335904      0.724991  -0.000335904     -0.274565   0.000164871
       19952.6     -0.274227   0.000545659      0.724991  -0.000336836      0.724991  -0.000336836     -0.274564    0.00016528
       20044.7     -0.274226   0.000547087       0.72499   -0.00033777       0.72499   -0.00033777     -0.274564    0.00016569
       20137.2     -0.274225   0.000548519      0.724989  -0.000338707      0.724989  -0.000338707     -0.274563     0.0001661
       20230.2     -0.274224   0.000549955      0.724989  -0.000339647      0.724989  -0.000339647     -0.274563   0.000166512
       20323.6     -0.274223   0.000551395      0.724988  -0.000340589      0.724988  -0.000340589     -0.274563   0.000166925
