! NPort=2 DATA=4501 NOISE=0 GROUPDELAY=0 COMPLEX_DATAFORMAT=RI
! NumOfBlock=1 NumOfParam=0
!
! .MODEL Smodel S TSTONEFILE=./link_rx/link_rx_s2/lr10000_10000000000000dec_0_3.s2p TYPE=S
!   -- The above .MODEL line can be used for the S element in the netlist.
!
!
# Hz S RI R             50
         10000  2.24855e-005   2.0565e-005 -1.85381e-006 -2.10391e-006 -1.85381e-006 -2.10391e-006      -0.99991  8.85332e-005
       10046.2  2.25328e-005  2.06124e-005 -1.85809e-006 -2.10934e-006 -1.85809e-006 -2.10934e-006      -0.99991  8.87518e-005
       10092.5  2.25802e-005  2.06599e-005 -1.86237e-006 -2.11478e-006 -1.86237e-006 -2.11478e-006     -0.999909  8.89709e-005
       10139.1  2.26277e-005  2.07075e-005 -1.86666e-006 -2.12024e-006 -1.86666e-006 -2.12024e-006     -0.999909  8.91907e-005
       10185.9  2.26753e-005  2.07552e-005 -1.87097e-006 -2.12571e-006 -1.87097e-006 -2.12571e-006     -0.999909  8.94109e-005
       10232.9   2.2723e-005  2.08031e-005 -1.87528e-006  -2.1312e-006 -1.87528e-006  -2.1312e-006     -0.999909  8.96318e-005
       10280.2  2.27708e-005   2.0851e-005  -1.8796e-006  -2.1367e-006  -1.8796e-006  -2.1367e-006     -0.999909  8.98533e-005
       10327.6  2.28187e-005  2.08991e-005 -1.88394e-006 -2.14222e-006 -1.88394e-006 -2.14222e-006     -0.999908  9.00753e-005
       10375.3  2.28667e-005  2.09473e-005 -1.88828e-006 -2.14776e-006 -1.88828e-006 -2.14776e-006     -0.999908  9.02979e-005
       10423.2  2.29149e-005  2.09956e-005 -1.89263e-006 -2.15331e-006 -1.89263e-006 -2.15331e-006     -0.999908  9.05211e-005
       10471.3  2.29631e-005   2.1044e-005 -1.89699e-006 -2.15888e-006   -1.897e-006 -2.15888e-006     -0.999908  9.07448e-005
       10519.6  2.30115e-005  2.10925e-005 -1.90137e-006 -2.16446e-006 -1.90137e-006 -2.16446e-006     -0.999908  9.09692e-005
       10568.2    2.306e-005  2.11411e-005 -1.90575e-006 -2.17005e-006 -1.90575e-006 -2.17005e-006     -0.999907  9.11941e-005
         10617  2.31086e-005  2.11898e-005 -1.91014e-006 -2.17567e-006 -1.91015e-006 -2.17567e-006     -0.999907  9.14196e-005
         10666  2.31573e-005  2.12387e-005 -1.91455e-006  -2.1813e-006 -1.91455e-006  -2.1813e-006     -0.999907  9.16458e-005
       10715.2  2.32061e-005  2.12876e-005 -1.91896e-006 -2.18694e-006 -1.91896e-006 -2.18694e-006     -0.999907  9.18725e-005
       10764.7   2.3255e-005  2.13367e-005 -1.92339e-006  -2.1926e-006 -1.92339e-006  -2.1926e-006     -0.999907  9.20998e-005
       10814.3  2.33041e-005  2.13859e-005 -1.92782e-006 -2.19828e-006 -1.92782e-006 -2.19828e-006     -0.999906  9.23277e-005
       10864.3  2.33532e-005  2.14352e-005 -1.93226e-006 -2.20397e-006 -1.93226e-006 -2.20397e-006     -0.999906  9.25562e-005
       10914.4  2.34025e-005  2.14846e-005 -1.93672e-006 -2.20968e-006 -1.93672e-006 -2.20968e-006     -0.999906  9.27853e-005
       10964.8  2.34518e-005  2.15341e-005 -1.94118e-006  -2.2154e-006 -1.94118e-006  -2.2154e-006     -0.999906   9.3015e-005
       11015.4  2.35013e-005  2.15838e-005 -1.94566e-006 -2.22114e-006 -1.94566e-006 -2.22114e-006     -0.999906  9.32453e-005
       11066.2  2.35509e-005  2.16335e-005 -1.95014e-006  -2.2269e-006 -1.95014e-006  -2.2269e-006     -0.999905  9.34762e-005
       11117.3  2.36007e-005  2.16834e-005 -1.95464e-006 -2.23267e-006 -1.95464e-006 -2.23267e-006     -0.999905  9.37077e-005
       11168.6  2.36505e-005  2.17334e-005 -1.95915e-006 -2.23846e-006 -1.95915e-006 -2.23846e-006     -0.999905  9.39398e-005
       11220.2  2.37004e-005  2.17835e-005 -1.96366e-006 -2.24427e-006 -1.96366e-006 -2.24427e-006     -0.999905  9.41725e-005
         11272  2.37505e-005  2.18337e-005 -1.96819e-006 -2.25009e-006 -1.96819e-006 -2.25009e-006     -0.999905  9.44059e-005
         11324  2.38007e-005   2.1884e-005 -1.97273e-006 -2.25593e-006 -1.97273e-006 -2.25593e-006     -0.999904  9.46398e-005
       11376.3   2.3851e-005  2.19344e-005 -1.97728e-006 -2.26178e-006 -1.97728e-006 -2.26178e-006     -0.999904  9.48744e-005
       11428.8  2.39014e-005   2.1985e-005 -1.98183e-006 -2.26766e-006 -1.98183e-006 -2.26766e-006     -0.999904  9.51096e-005
       11481.5  2.39519e-005  2.20357e-005  -1.9864e-006 -2.27354e-006  -1.9864e-006 -2.27354e-006     -0.999904  9.53454e-005
       11534.5  2.40025e-005  2.20865e-005 -1.99098e-006 -2.27945e-006 -1.99098e-006 -2.27945e-006     -0.999904  9.55818e-005
       11587.8  2.40533e-005  2.21374e-005 -1.99557e-006 -2.28537e-006 -1.99557e-006 -2.28537e-006     -0.999903  9.58188e-005
       11641.3  2.41042e-005  2.21884e-005 -2.00017e-006 -2.29131e-006 -2.00017e-006 -2.29131e-006     -0.999903  9.60565e-005
         11695  2.41552e-005  2.22396e-005 -2.00478e-006 -2.29726e-006 -2.00478e-006 -2.29726e-006     -0.999903  9.62948e-005
         11749  2.42063e-005  2.22908e-005 -2.00941e-006 -2.30323e-006 -2.00941e-006 -2.30323e-006     -0.999903  9.65337e-005
       11803.2  2.42575e-005  2.23422e-005 -2.01404e-006 -2.30922e-006 -2.01404e-006 -2.30922e-006     -0.999903  9.67732e-005
       11857.7  2.43088e-005  2.23937e-005 -2.01868e-006 -2.31523e-006 -2.01868e-006 -2.31523e-006     -0.999902  9.70134e-005
       11912.4  2.43603e-005  2.24453e-005 -2.02334e-006 -2.32125e-006 -2.02334e-006 -2.32125e-006     -0.999902  9.72542e-005
       11967.4  2.44119e-005  2.24971e-005   -2.028e-006 -2.32729e-006   -2.028e-006 -2.32729e-006     -0.999902  9.74957e-005
       12022.6  2.44636e-005  2.25489e-005 -2.03268e-006 -2.33335e-006 -2.03268e-006 -2.33335e-006     -0.999902  9.77378e-005
       12078.1  2.45154e-005  2.26009e-005 -2.03736e-006 -2.33942e-006 -2.03736e-006 -2.33942e-006     -0.999902  9.79805e-005
       12133.9  2.45673e-005   2.2653e-005 -2.04206e-006 -2.34551e-006 -2.04206e-006 -2.34551e-006     -0.999901  9.82238e-005
       12189.9  2.46194e-005  2.27052e-005 -2.04677e-006 -2.35162e-006 -2.04677e-006 -2.35162e-006     -0.999901  9.84678e-005
       12246.2  2.46715e-005  2.27576e-005 -2.05148e-006 -2.35774e-006 -2.05148e-006 -2.35774e-006     -0.999901  9.87125e-005
       12302.7  2.47238e-005    2.281e-005 -2.05621e-006 -2.36389e-006 -2.05621e-006 -2.36389e-006     -0.999901  9.89578e-005
       12359.5  2.47762e-005  2.28626e-005 -2.06095e-006 -2.37005e-006 -2.06095e-006 -2.37005e-006     -0.999901  9.92037e-005
       12416.5  2.48288e-005  2.29153e-005 -2.06571e-006 -2.37622e-006 -2.06571e-006 -2.37622e-006       -0.9999  9.94503e-005
       12473.8  2.48814e-005  2.29681e-005 -2.07047e-006 -2.38242e-006 -2.07047e-006 -2.38242e-006       -0.9999  9.96975e-005
       12531.4  2.49342e-005  2.30211e-005 -2.07524e-006 -2.38863e-006 -2.07524e-006 -2.38863e-006       -0.9999  9.99454e-005
       12589.3  2.49871e-005  2.30741e-005 -2.08003e-006 -2.39486e-006 -2.08003e-006 -2.39486e-006       -0.9999   0.000100194
       12647.4  2.50401e-005  2.31273e-005 -2.08482e-006 -2.40111e-006 -2.08482e-006 -2.40111e-006     -0.999899   0.000100443
       12705.7  2.50933e-005  2.31806e-005 -2.08963e-006 -2.40738e-006 -2.08963e-006 -2.40738e-006     -0.999899   0.000100693
       12764.4  2.51465e-005  2.32341e-005 -2.09444e-006 -2.41366e-006 -2.09444e-006 -2.41366e-006     -0.999899   0.000100944
       12823.3  2.51999e-005  2.32876e-005 -2.09927e-006 -2.41996e-006 -2.09927e-006 -2.41996e-006     -0.999899   0.000101195
       12882.5  2.52534e-005  2.33413e-005 -2.10411e-006 -2.42628e-006 -2.10411e-006 -2.42628e-006     -0.999899   0.000101447
         12942   2.5307e-005  2.33951e-005 -2.10896e-006 -2.43262e-006 -2.10896e-006 -2.43262e-006     -0.999898   0.000101699
       13001.7  2.53608e-005  2.34491e-005 -2.11383e-006 -2.43897e-006 -2.11383e-006 -2.43897e-006     -0.999898   0.000101952
       13061.7  2.54147e-005  2.35031e-005  -2.1187e-006 -2.44535e-006  -2.1187e-006 -2.44535e-006     -0.999898   0.000102206
         13122  2.54687e-005  2.35573e-005 -2.12358e-006 -2.45174e-006 -2.12358e-006 -2.45174e-006     -0.999898   0.000102461
       13182.6  2.55228e-005  2.36116e-005 -2.12848e-006 -2.45815e-006 -2.12848e-006 -2.45815e-006     -0.999898   0.000102716
       13243.4   2.5577e-005   2.3666e-005 -2.13339e-006 -2.46458e-006 -2.13339e-006 -2.46458e-006     -0.999897   0.000102972
       13304.5  2.56314e-005  2.37206e-005  -2.1383e-006 -2.47103e-006  -2.1383e-006 -2.47103e-006     -0.999897   0.000103228
         13366  2.56859e-005  2.37752e-005 -2.14323e-006 -2.47749e-006 -2.14323e-006 -2.47749e-006     -0.999897   0.000103485
       13427.6  2.57405e-005    2.383e-005 -2.14817e-006 -2.48397e-006 -2.14817e-006 -2.48397e-006     -0.999897   0.000103743
       13489.6  2.57953e-005   2.3885e-005 -2.15313e-006 -2.49048e-006 -2.15313e-006 -2.49048e-006     -0.999896   0.000104002
       13551.9  2.58502e-005    2.394e-005 -2.15809e-006   -2.497e-006 -2.15809e-006   -2.497e-006     -0.999896   0.000104261
       13614.4  2.59052e-005  2.39952e-005 -2.16307e-006 -2.50354e-006 -2.16307e-006 -2.50354e-006     -0.999896   0.000104521
       13677.3  2.59603e-005  2.40505e-005 -2.16805e-006 -2.51009e-006 -2.16805e-006 -2.51009e-006     -0.999896   0.000104782
       13740.4  2.60155e-005   2.4106e-005 -2.17305e-006 -2.51667e-006 -2.17305e-006 -2.51667e-006     -0.999896   0.000105043
       13803.8  2.60709e-005  2.41615e-005 -2.17806e-006 -2.52327e-006 -2.17806e-006 -2.52327e-006     -0.999895   0.000105305
       13867.6  2.61264e-005  2.42172e-005 -2.18308e-006 -2.52988e-006 -2.18308e-006 -2.52988e-006     -0.999895   0.000105568
       13931.6  2.61821e-005   2.4273e-005 -2.18812e-006 -2.53651e-006 -2.18812e-006 -2.53651e-006     -0.999895   0.000105832
       13995.9  2.62378e-005   2.4329e-005 -2.19316e-006 -2.54317e-006 -2.19316e-006 -2.54317e-006     -0.999895   0.000106096
       14060.5  2.62937e-005  2.43851e-005 -2.19822e-006 -2.54984e-006 -2.19822e-006 -2.54984e-006     -0.999894    0.00010636
       14125.4  2.63497e-005  2.44413e-005 -2.20328e-006 -2.55653e-006 -2.20328e-006 -2.55653e-006     -0.999894   0.000106626
       14190.6  2.64059e-005  2.44976e-005 -2.20836e-006 -2.56324e-006 -2.20836e-006 -2.56324e-006     -0.999894   0.000106892
       14256.1  2.64622e-005  2.45541e-005 -2.21345e-006 -2.56997e-006 -2.21345e-006 -2.56997e-006     -0.999894   0.000107159
       14321.9  2.65186e-005  2.46107e-005 -2.21856e-006 -2.57671e-006 -2.21856e-006 -2.57671e-006     -0.999894   0.000107427
         14388  2.65751e-005  2.46674e-005 -2.22367e-006 -2.58348e-006 -2.22367e-006 -2.58348e-006     -0.999893   0.000107695
       14454.4  2.66318e-005  2.47243e-005  -2.2288e-006 -2.59027e-006  -2.2288e-006 -2.59027e-006     -0.999893   0.000107964
       14521.1  2.66886e-005  2.47813e-005 -2.23394e-006 -2.59708e-006 -2.23394e-006 -2.59708e-006     -0.999893   0.000108234
       14588.1  2.67455e-005  2.48384e-005 -2.23909e-006  -2.6039e-006 -2.23909e-006  -2.6039e-006     -0.999893   0.000108505
       14655.5  2.68026e-005  2.48957e-005 -2.24425e-006 -2.61075e-006 -2.24425e-006 -2.61075e-006     -0.999892   0.000108776
       14723.1  2.68597e-005  2.49531e-005 -2.24942e-006 -2.61761e-006 -2.24942e-006 -2.61761e-006     -0.999892   0.000109048
       14791.1  2.69171e-005  2.50106e-005 -2.25461e-006  -2.6245e-006 -2.25461e-006  -2.6245e-006     -0.999892   0.000109321
       14859.4  2.69745e-005  2.50682e-005 -2.25981e-006  -2.6314e-006 -2.25981e-006  -2.6314e-006     -0.999892   0.000109594
       14927.9  2.70321e-005   2.5126e-005 -2.26502e-006 -2.63833e-006 -2.26502e-006 -2.63833e-006     -0.999891   0.000109868
       14996.8  2.70898e-005  2.51839e-005 -2.27024e-006 -2.64527e-006 -2.27024e-006 -2.64527e-006     -0.999891   0.000110143
       15066.1  2.71477e-005   2.5242e-005 -2.27547e-006 -2.65224e-006 -2.27547e-006 -2.65224e-006     -0.999891   0.000110419
       15135.6  2.72056e-005  2.53002e-005 -2.28072e-006 -2.65922e-006 -2.28072e-006 -2.65922e-006     -0.999891   0.000110695
       15205.5  2.72638e-005  2.53585e-005 -2.28598e-006 -2.66622e-006 -2.28598e-006 -2.66622e-006     -0.999891   0.000110972
       15275.7   2.7322e-005  2.54169e-005 -2.29125e-006 -2.67325e-006 -2.29125e-006 -2.67325e-006      -0.99989    0.00011125
       15346.2  2.73804e-005  2.54755e-005 -2.29653e-006 -2.68029e-006 -2.29653e-006 -2.68029e-006      -0.99989   0.000111529
         15417  2.74389e-005  2.55342e-005 -2.30182e-006 -2.68736e-006 -2.30182e-006 -2.68736e-006      -0.99989   0.000111808
       15488.2  2.74976e-005  2.55931e-005 -2.30713e-006 -2.69445e-006 -2.30713e-006 -2.69445e-006      -0.99989   0.000112088
       15559.7  2.75563e-005  2.56521e-005 -2.31245e-006 -2.70155e-006 -2.31245e-006 -2.70155e-006     -0.999889   0.000112369
       15631.5  2.76153e-005  2.57112e-005 -2.31778e-006 -2.70868e-006 -2.31778e-006 -2.70868e-006     -0.999889    0.00011265
       15703.6  2.76743e-005  2.57705e-005 -2.32312e-006 -2.71583e-006 -2.32312e-006 -2.71583e-006     -0.999889   0.000112933
       15776.1  2.77335e-005  2.58299e-005 -2.32848e-006 -2.72299e-006 -2.32848e-006 -2.72299e-006     -0.999889   0.000113216
       15848.9  2.77928e-005  2.58894e-005 -2.33385e-006 -2.73018e-006 -2.33385e-006 -2.73018e-006     -0.999888     0.0001135
       15922.1  2.78523e-005  2.59491e-005 -2.33923e-006 -2.73739e-006 -2.33923e-006 -2.73739e-006     -0.999888   0.000113784
       15995.6  2.79119e-005  2.60089e-005 -2.34462e-006 -2.74462e-006 -2.34462e-006 -2.74462e-006     -0.999888    0.00011407
       16069.4  2.79716e-005  2.60689e-005 -2.35003e-006 -2.75187e-006 -2.35003e-006 -2.75187e-006     -0.999888   0.000114356
       16143.6  2.80315e-005   2.6129e-005 -2.35544e-006 -2.75915e-006 -2.35544e-006 -2.75915e-006     -0.999887   0.000114643
       16218.1  2.80915e-005  2.61892e-005 -2.36087e-006 -2.76644e-006 -2.36087e-006 -2.76644e-006     -0.999887    0.00011493
         16293  2.81517e-005  2.62496e-005 -2.36632e-006 -2.77375e-006 -2.36632e-006 -2.77375e-006     -0.999887   0.000115219
       16368.2   2.8212e-005  2.63101e-005 -2.37177e-006 -2.78109e-006 -2.37177e-006 -2.78109e-006     -0.999887   0.000115508
       16443.7  2.82724e-005  2.63707e-005 -2.37724e-006 -2.78845e-006 -2.37724e-006 -2.78845e-006     -0.999887   0.000115798
       16519.6  2.83329e-005  2.64315e-005 -2.38272e-006 -2.79582e-006 -2.38272e-006 -2.79582e-006     -0.999886   0.000116089
       16595.9  2.83937e-005  2.64924e-005 -2.38822e-006 -2.80322e-006 -2.38822e-006 -2.80322e-006     -0.999886    0.00011638
       16672.5  2.84545e-005  2.65535e-005 -2.39372e-006 -2.81064e-006 -2.39372e-006 -2.81064e-006     -0.999886   0.000116672
       16749.4  2.85155e-005  2.66147e-005 -2.39924e-006 -2.81809e-006 -2.39924e-006 -2.81809e-006     -0.999886   0.000116966
       16826.7  2.85766e-005  2.66761e-005 -2.40477e-006 -2.82555e-006 -2.40477e-006 -2.82555e-006     -0.999885   0.000117259
       16904.4  2.86379e-005  2.67376e-005 -2.41032e-006 -2.83304e-006 -2.41032e-006 -2.83304e-006     -0.999885   0.000117554
       16982.4  2.86993e-005  2.67992e-005 -2.41587e-006 -2.84055e-006 -2.41587e-006 -2.84054e-006     -0.999885    0.00011785
       17060.8  2.87608e-005   2.6861e-005 -2.42144e-006 -2.84807e-006 -2.42144e-006 -2.84807e-006     -0.999885   0.000118146
       17139.6  2.88225e-005  2.69229e-005 -2.42702e-006 -2.85563e-006 -2.42702e-006 -2.85563e-006     -0.999884   0.000118443
       17218.7  2.88843e-005  2.69849e-005 -2.43262e-006  -2.8632e-006 -2.43262e-006  -2.8632e-006     -0.999884   0.000118741
       17298.2  2.89463e-005  2.70471e-005 -2.43823e-006 -2.87079e-006 -2.43823e-006 -2.87079e-006     -0.999884   0.000119039
         17378  2.90084e-005  2.71095e-005 -2.44385e-006 -2.87841e-006 -2.44385e-006 -2.87841e-006     -0.999884   0.000119339
       17458.2  2.90707e-005   2.7172e-005 -2.44948e-006 -2.88605e-006 -2.44948e-006 -2.88605e-006     -0.999883   0.000119639
       17538.8  2.91331e-005  2.72346e-005 -2.45513e-006 -2.89371e-006 -2.45513e-006 -2.89371e-006     -0.999883    0.00011994
       17619.8  2.91956e-005  2.72974e-005 -2.46079e-006  -2.9014e-006 -2.46079e-006  -2.9014e-006     -0.999883   0.000120242
       17701.1  2.92583e-005  2.73603e-005 -2.46646e-006  -2.9091e-006 -2.46646e-006  -2.9091e-006     -0.999883   0.000120545
       17782.8  2.93211e-005  2.74234e-005 -2.47215e-006 -2.91683e-006 -2.47215e-006 -2.91683e-006     -0.999882   0.000120848
       17864.9  2.93841e-005  2.74866e-005 -2.47785e-006 -2.92458e-006 -2.47785e-006 -2.92458e-006     -0.999882   0.000121153
       17947.3  2.94472e-005    2.755e-005 -2.48356e-006 -2.93236e-006 -2.48356e-006 -2.93236e-006     -0.999882   0.000121458
       18030.2  2.95105e-005  2.76135e-005 -2.48929e-006 -2.94015e-006 -2.48929e-006 -2.94015e-006     -0.999882   0.000121764
       18113.4  2.95739e-005  2.76771e-005 -2.49503e-006 -2.94797e-006 -2.49503e-006 -2.94797e-006     -0.999881   0.000122071
         18197  2.96374e-005  2.77409e-005 -2.50078e-006 -2.95582e-006 -2.50078e-006 -2.95582e-006     -0.999881   0.000122378
         18281  2.97011e-005  2.78049e-005 -2.50654e-006 -2.96368e-006 -2.50654e-006 -2.96368e-006     -0.999881   0.000122687
       18365.4   2.9765e-005  2.78689e-005 -2.51232e-006 -2.97157e-006 -2.51232e-006 -2.97157e-006     -0.999881   0.000122996
       18450.2   2.9829e-005  2.79332e-005 -2.51812e-006 -2.97948e-006 -2.51812e-006 -2.97948e-006      -0.99988   0.000123306
       18535.3  2.98931e-005  2.79976e-005 -2.52392e-006 -2.98742e-006 -2.52392e-006 -2.98742e-006      -0.99988   0.000123617
       18620.9  2.99574e-005  2.80621e-005 -2.52974e-006 -2.99537e-006 -2.52974e-006 -2.99537e-006      -0.99988   0.000123929
       18706.8  3.00218e-005  2.81268e-005 -2.53557e-006 -3.00335e-006 -2.53557e-006 -3.00335e-006     -0.999879   0.000124242
       18793.2  3.00864e-005  2.81916e-005 -2.54142e-006 -3.01136e-006 -2.54142e-006 -3.01136e-006     -0.999879   0.000124555
       18879.9  3.01511e-005  2.82566e-005 -2.54728e-006 -3.01939e-006 -2.54728e-006 -3.01939e-006     -0.999879   0.000124869
       18967.1   3.0216e-005  2.83217e-005 -2.55315e-006 -3.02744e-006 -2.55315e-006 -3.02744e-006     -0.999879   0.000125185
       19054.6   3.0281e-005   2.8387e-005 -2.55904e-006 -3.03551e-006 -2.55904e-006 -3.03551e-006     -0.999878   0.000125501
       19142.6  3.03462e-005  2.84525e-005 -2.56494e-006 -3.04361e-006 -2.56494e-006 -3.04361e-006     -0.999878   0.000125817
       19230.9  3.04115e-005  2.85181e-005 -2.57085e-006 -3.05173e-006 -2.57085e-006 -3.05173e-006     -0.999878   0.000126135
       19319.7   3.0477e-005  2.85838e-005 -2.57678e-006 -3.05988e-006 -2.57678e-006 -3.05988e-006     -0.999878   0.000126454
       19408.9  3.05426e-005  2.86497e-005 -2.58272e-006 -3.06805e-006 -2.58272e-006 -3.06805e-006     -0.999877   0.000126773
       19498.4  3.06084e-005  2.87157e-005 -2.58867e-006 -3.07624e-006 -2.58867e-006 -3.07624e-006     -0.999877   0.000127094
       19588.4  3.06743e-005  2.87819e-005 -2.59464e-006 -3.08446e-006 -2.59464e-006 -3.08446e-006     -0.999877   0.000127415
       19678.9  3.07404e-005  2.88483e-005 -2.60062e-006  -3.0927e-006 -2.60062e-006  -3.0927e-006     -0.999877   0.000127737
       19769.7  3.08067e-005  2.89147e-005 -2.60662e-006 -3.10097e-006 -2.60662e-006 -3.10097e-006     -0.999876    0.00012806
       19860.9   3.0873e-005  2.89814e-005 -2.61263e-006 -3.10926e-006 -2.61263e-006 -3.10926e-006     -0.999876   0.000128384
       19952.6  3.09396e-005  2.90482e-005 -2.61865e-006 -3.11758e-006 -2.61865e-006 -3.11758e-006     -0.999876   0.000128708
       20044.7  3.10063e-005  2.91152e-005 -2.62469e-006 -3.12592e-006 -2.62469e-006 -3.12592e-006     -0.999876   0.000129034
       20137.2  3.10731e-005  2.91823e-005 -2.63074e-006 -3.13428e-006 -2.63074e-006 -3.13428e-006     -0.999875   0.000129361
       20230.2  3.11401e-005  2.92495e-005  -2.6368e-006 -3.14267e-006  -2.6368e-006 -3.14267e-006     -0.999875   0.000129688
       20323.6  3.12073e-005   2.9317e-005 -2.64288e-006 -3.15108e-006 -2.64288e-006 -3.15108e-006     -0.999875   0.000130016
