! NPort=2 DATA=4501 NOISE=0 GROUPDELAY=0 COMPLEX_DATAFORMAT=RI
! NumOfBlock=1 NumOfParam=0
!
! .MODEL Smodel S TSTONEFILE=./link_rx/link_rx_s2/lr10000_10000000000000dec_2_3.s2p TYPE=S
!   -- The above .MODEL line can be used for the S element in the netlist.
!
!
# Hz S RI R             50
         10000     -0.333293  3.86547e-005      0.666647 -2.03746e-005      0.666647 -2.03746e-005     -0.333323  9.14009e-006
       10046.2     -0.333293  3.87486e-005      0.666647 -2.04264e-005      0.666647 -2.04264e-005     -0.333323  9.16116e-006
       10092.5     -0.333293  3.88428e-005      0.666646 -2.04783e-005      0.666646 -2.04783e-005     -0.333323  9.18228e-006
       10139.1     -0.333293  3.89372e-005      0.666646 -2.05304e-005      0.666646 -2.05304e-005     -0.333323  9.20344e-006
       10185.9     -0.333293  3.90319e-005      0.666646 -2.05826e-005      0.666646 -2.05826e-005     -0.333323  9.22466e-006
       10232.9     -0.333293  3.91268e-005      0.666646  -2.0635e-005      0.666646  -2.0635e-005     -0.333323  9.24592e-006
       10280.2     -0.333293  3.92219e-005      0.666646 -2.06875e-005      0.666646 -2.06875e-005     -0.333323  9.26723e-006
       10327.6     -0.333293  3.93173e-005      0.666646 -2.07402e-005      0.666646 -2.07402e-005     -0.333323  9.28859e-006
       10375.3     -0.333293  3.94129e-005      0.666646  -2.0793e-005      0.666646  -2.0793e-005     -0.333323     9.31e-006
       10423.2     -0.333292  3.95088e-005      0.666646 -2.08459e-005      0.666646 -2.08459e-005     -0.333323  9.33146e-006
       10471.3     -0.333292  3.96049e-005      0.666646  -2.0899e-005      0.666646  -2.0899e-005     -0.333323  9.35298e-006
       10519.6     -0.333292  3.97013e-005      0.666646 -2.09523e-005      0.666646 -2.09523e-005     -0.333323  9.37453e-006
       10568.2     -0.333292  3.97979e-005      0.666646 -2.10057e-005      0.666646 -2.10057e-005     -0.333323  9.39614e-006
         10617     -0.333292  3.98947e-005      0.666646 -2.10592e-005      0.666646 -2.10592e-005     -0.333323   9.4178e-006
         10666     -0.333292  3.99918e-005      0.666646 -2.11129e-005      0.666646 -2.11129e-005     -0.333323  9.43951e-006
       10715.2     -0.333292  4.00892e-005      0.666646 -2.11667e-005      0.666646 -2.11667e-005     -0.333323  9.46127e-006
       10764.7     -0.333292  4.01868e-005      0.666646 -2.12207e-005      0.666646 -2.12207e-005     -0.333323  9.48308e-006
       10814.3     -0.333292  4.02846e-005      0.666646 -2.12748e-005      0.666646 -2.12748e-005     -0.333323  9.50494e-006
       10864.3     -0.333292  4.03827e-005      0.666646 -2.13291e-005      0.666646 -2.13291e-005     -0.333323  9.52685e-006
       10914.4     -0.333292  4.04811e-005      0.666646 -2.13835e-005      0.666646 -2.13835e-005     -0.333323  9.54881e-006
       10964.8     -0.333292  4.05797e-005      0.666646 -2.14381e-005      0.666646 -2.14381e-005     -0.333323  9.57082e-006
       11015.4     -0.333291  4.06785e-005      0.666646 -2.14928e-005      0.666646 -2.14928e-005     -0.333323  9.59288e-006
       11066.2     -0.333291  4.07776e-005      0.666646 -2.15477e-005      0.666646 -2.15477e-005     -0.333323  9.61499e-006
       11117.3     -0.333291   4.0877e-005      0.666646 -2.16027e-005      0.666646 -2.16027e-005     -0.333323  9.63716e-006
       11168.6     -0.333291  4.09766e-005      0.666646 -2.16579e-005      0.666646 -2.16579e-005     -0.333323  9.65937e-006
       11220.2     -0.333291  4.10764e-005      0.666645 -2.17132e-005      0.666645 -2.17132e-005     -0.333323  9.68164e-006
         11272     -0.333291  4.11765e-005      0.666645 -2.17687e-005      0.666645 -2.17687e-005     -0.333323  9.70395e-006
         11324     -0.333291  4.12769e-005      0.666645 -2.18243e-005      0.666645 -2.18243e-005     -0.333323  9.72632e-006
       11376.3     -0.333291  4.13775e-005      0.666645 -2.18801e-005      0.666645 -2.18801e-005     -0.333323  9.74874e-006
       11428.8     -0.333291  4.14784e-005      0.666645  -2.1936e-005      0.666645  -2.1936e-005     -0.333323  9.77121e-006
       11481.5     -0.333291  4.15796e-005      0.666645 -2.19921e-005      0.666645 -2.19921e-005     -0.333323  9.79374e-006
       11534.5     -0.333291   4.1681e-005      0.666645 -2.20484e-005      0.666645 -2.20484e-005     -0.333323  9.81631e-006
       11587.8      -0.33329  4.17826e-005      0.666645 -2.21048e-005      0.666645 -2.21048e-005     -0.333323  9.83894e-006
       11641.3      -0.33329  4.18845e-005      0.666645 -2.21614e-005      0.666645 -2.21614e-005     -0.333323  9.86162e-006
         11695      -0.33329  4.19867e-005      0.666645 -2.22181e-005      0.666645 -2.22181e-005     -0.333323  9.88435e-006
         11749      -0.33329  4.20892e-005      0.666645  -2.2275e-005      0.666645  -2.2275e-005     -0.333323  9.90714e-006
       11803.2      -0.33329  4.21919e-005      0.666645  -2.2332e-005      0.666645  -2.2332e-005     -0.333323  9.92997e-006
       11857.7      -0.33329  4.22948e-005      0.666645 -2.23892e-005      0.666645 -2.23892e-005     -0.333323  9.95286e-006
       11912.4      -0.33329  4.23981e-005      0.666645 -2.24465e-005      0.666645 -2.24465e-005     -0.333323  9.97581e-006
       11967.4      -0.33329  4.25016e-005      0.666645  -2.2504e-005      0.666645  -2.2504e-005     -0.333322   9.9988e-006
       12022.6      -0.33329  4.26053e-005      0.666645 -2.25617e-005      0.666645 -2.25617e-005     -0.333322  1.00218e-005
       12078.1      -0.33329  4.27094e-005      0.666645 -2.26195e-005      0.666645 -2.26195e-005     -0.333322  1.00449e-005
       12133.9      -0.33329  4.28136e-005      0.666645 -2.26775e-005      0.666645 -2.26775e-005     -0.333322  1.00681e-005
       12189.9     -0.333289  4.29182e-005      0.666645 -2.27356e-005      0.666645 -2.27356e-005     -0.333322  1.00913e-005
       12246.2     -0.333289   4.3023e-005      0.666645  -2.2794e-005      0.666645  -2.2794e-005     -0.333322  1.01146e-005
       12302.7     -0.333289  4.31281e-005      0.666645 -2.28524e-005      0.666645 -2.28524e-005     -0.333322  1.01379e-005
       12359.5     -0.333289  4.32335e-005      0.666645 -2.29111e-005      0.666645 -2.29111e-005     -0.333322  1.01613e-005
       12416.5     -0.333289  4.33391e-005      0.666644 -2.29698e-005      0.666644 -2.29698e-005     -0.333322  1.01847e-005
       12473.8     -0.333289   4.3445e-005      0.666644 -2.30288e-005      0.666644 -2.30288e-005     -0.333322  1.02082e-005
       12531.4     -0.333289  4.35512e-005      0.666644 -2.30879e-005      0.666644 -2.30879e-005     -0.333322  1.02317e-005
       12589.3     -0.333289  4.36577e-005      0.666644 -2.31472e-005      0.666644 -2.31472e-005     -0.333322  1.02553e-005
       12647.4     -0.333289  4.37644e-005      0.666644 -2.32067e-005      0.666644 -2.32067e-005     -0.333322  1.02789e-005
       12705.7     -0.333289  4.38714e-005      0.666644 -2.32663e-005      0.666644 -2.32663e-005     -0.333322  1.03026e-005
       12764.4     -0.333289  4.39787e-005      0.666644  -2.3326e-005      0.666644  -2.3326e-005     -0.333322  1.03264e-005
       12823.3     -0.333288  4.40862e-005      0.666644  -2.3386e-005      0.666644  -2.3386e-005     -0.333322  1.03502e-005
       12882.5     -0.333288  4.41941e-005      0.666644 -2.34461e-005      0.666644 -2.34461e-005     -0.333322   1.0374e-005
         12942     -0.333288  4.43022e-005      0.666644 -2.35064e-005      0.666644 -2.35064e-005     -0.333322  1.03979e-005
       13001.7     -0.333288  4.44105e-005      0.666644 -2.35668e-005      0.666644 -2.35668e-005     -0.333322  1.04219e-005
       13061.7     -0.333288  4.45192e-005      0.666644 -2.36274e-005      0.666644 -2.36274e-005     -0.333322  1.04459e-005
         13122     -0.333288  4.46281e-005      0.666644 -2.36882e-005      0.666644 -2.36882e-005     -0.333322    1.047e-005
       13182.6     -0.333288  4.47374e-005      0.666644 -2.37492e-005      0.666644 -2.37492e-005     -0.333322  1.04941e-005
       13243.4     -0.333288  4.48469e-005      0.666644 -2.38103e-005      0.666644 -2.38103e-005     -0.333322  1.05183e-005
       13304.5     -0.333288  4.49567e-005      0.666644 -2.38716e-005      0.666644 -2.38716e-005     -0.333322  1.05426e-005
         13366     -0.333288  4.50667e-005      0.666644 -2.39331e-005      0.666644 -2.39331e-005     -0.333322  1.05669e-005
       13427.6     -0.333287  4.51771e-005      0.666644 -2.39947e-005      0.666644 -2.39947e-005     -0.333322  1.05912e-005
       13489.6     -0.333287  4.52877e-005      0.666644 -2.40565e-005      0.666644 -2.40565e-005     -0.333322  1.06156e-005
       13551.9     -0.333287  4.53986e-005      0.666644 -2.41185e-005      0.666644 -2.41185e-005     -0.333322  1.06401e-005
       13614.4     -0.333287  4.55098e-005      0.666644 -2.41806e-005      0.666644 -2.41806e-005     -0.333322  1.06646e-005
       13677.3     -0.333287  4.56213e-005      0.666643  -2.4243e-005      0.666643  -2.4243e-005     -0.333322  1.06892e-005
       13740.4     -0.333287  4.57331e-005      0.666643 -2.43055e-005      0.666643 -2.43055e-005     -0.333322  1.07139e-005
       13803.8     -0.333287  4.58452e-005      0.666643 -2.43681e-005      0.666643 -2.43681e-005     -0.333322  1.07386e-005
       13867.6     -0.333287  4.59575e-005      0.666643  -2.4431e-005      0.666643  -2.4431e-005     -0.333322  1.07633e-005
       13931.6     -0.333287  4.60702e-005      0.666643  -2.4494e-005      0.666643  -2.4494e-005     -0.333322  1.07881e-005
       13995.9     -0.333287  4.61831e-005      0.666643 -2.45572e-005      0.666643 -2.45572e-005     -0.333322   1.0813e-005
       14060.5     -0.333286  4.62963e-005      0.666643 -2.46206e-005      0.666643 -2.46206e-005     -0.333322  1.08379e-005
       14125.4     -0.333286  4.64099e-005      0.666643 -2.46842e-005      0.666643 -2.46842e-005     -0.333322  1.08629e-005
       14190.6     -0.333286  4.65237e-005      0.666643 -2.47479e-005      0.666643 -2.47479e-005     -0.333322  1.08879e-005
       14256.1     -0.333286  4.66378e-005      0.666643 -2.48118e-005      0.666643 -2.48118e-005     -0.333322   1.0913e-005
       14321.9     -0.333286  4.67522e-005      0.666643 -2.48759e-005      0.666643 -2.48759e-005     -0.333322  1.09382e-005
         14388     -0.333286  4.68669e-005      0.666643 -2.49402e-005      0.666643 -2.49402e-005     -0.333322  1.09634e-005
       14454.4     -0.333286  4.69819e-005      0.666643 -2.50046e-005      0.666643 -2.50046e-005     -0.333321  1.09887e-005
       14521.1     -0.333286  4.70972e-005      0.666643 -2.50693e-005      0.666643 -2.50693e-005     -0.333321   1.1014e-005
       14588.1     -0.333286  4.72127e-005      0.666643 -2.51341e-005      0.666643 -2.51341e-005     -0.333321  1.10394e-005
       14655.5     -0.333286  4.73286e-005      0.666643 -2.51991e-005      0.666643 -2.51991e-005     -0.333321  1.10648e-005
       14723.1     -0.333285  4.74448e-005      0.666643 -2.52642e-005      0.666643 -2.52642e-005     -0.333321  1.10903e-005
       14791.1     -0.333285  4.75613e-005      0.666643 -2.53296e-005      0.666643 -2.53296e-005     -0.333321  1.11159e-005
       14859.4     -0.333285  4.76781e-005      0.666643 -2.53951e-005      0.666643 -2.53951e-005     -0.333321  1.11415e-005
       14927.9     -0.333285  4.77952e-005      0.666643 -2.54609e-005      0.666643 -2.54609e-005     -0.333321  1.11672e-005
       14996.8     -0.333285  4.79126e-005      0.666642 -2.55268e-005      0.666642 -2.55268e-005     -0.333321  1.11929e-005
       15066.1     -0.333285  4.80303e-005      0.666642 -2.55929e-005      0.666642 -2.55929e-005     -0.333321  1.12187e-005
       15135.6     -0.333285  4.81483e-005      0.666642 -2.56592e-005      0.666642 -2.56592e-005     -0.333321  1.12446e-005
       15205.5     -0.333285  4.82666e-005      0.666642 -2.57256e-005      0.666642 -2.57256e-005     -0.333321  1.12705e-005
       15275.7     -0.333285  4.83852e-005      0.666642 -2.57923e-005      0.666642 -2.57923e-005     -0.333321  1.12965e-005
       15346.2     -0.333285  4.85041e-005      0.666642 -2.58591e-005      0.666642 -2.58591e-005     -0.333321  1.13225e-005
         15417     -0.333284  4.86234e-005      0.666642 -2.59262e-005      0.666642 -2.59262e-005     -0.333321  1.13486e-005
       15488.2     -0.333284  4.87429e-005      0.666642 -2.59934e-005      0.666642 -2.59934e-005     -0.333321  1.13748e-005
       15559.7     -0.333284  4.88628e-005      0.666642 -2.60608e-005      0.666642 -2.60608e-005     -0.333321   1.1401e-005
       15631.5     -0.333284  4.89829e-005      0.666642 -2.61284e-005      0.666642 -2.61284e-005     -0.333321  1.14273e-005
       15703.6     -0.333284  4.91034e-005      0.666642 -2.61962e-005      0.666642 -2.61962e-005     -0.333321  1.14536e-005
       15776.1     -0.333284  4.92242e-005      0.666642 -2.62642e-005      0.666642 -2.62642e-005     -0.333321    1.148e-005
       15848.9     -0.333284  4.93453e-005      0.666642 -2.63324e-005      0.666642 -2.63324e-005     -0.333321  1.15065e-005
       15922.1     -0.333284  4.94667e-005      0.666642 -2.64007e-005      0.666642 -2.64007e-005     -0.333321   1.1533e-005
       15995.6     -0.333284  4.95884e-005      0.666642 -2.64693e-005      0.666642 -2.64693e-005     -0.333321  1.15596e-005
       16069.4     -0.333283  4.97105e-005      0.666642  -2.6538e-005      0.666642 -2.65381e-005     -0.333321  1.15863e-005
       16143.6     -0.333283  4.98328e-005      0.666642  -2.6607e-005      0.666642  -2.6607e-005     -0.333321   1.1613e-005
       16218.1     -0.333283  4.99555e-005      0.666642 -2.66761e-005      0.666642 -2.66761e-005     -0.333321  1.16397e-005
         16293     -0.333283  5.00785e-005      0.666642 -2.67455e-005      0.666642 -2.67455e-005     -0.333321  1.16666e-005
       16368.2     -0.333283  5.02018e-005      0.666641  -2.6815e-005      0.666641  -2.6815e-005     -0.333321  1.16935e-005
       16443.7     -0.333283  5.03255e-005      0.666641 -2.68847e-005      0.666641 -2.68847e-005     -0.333321  1.17204e-005
       16519.6     -0.333283  5.04494e-005      0.666641 -2.69547e-005      0.666641 -2.69547e-005     -0.333321  1.17474e-005
       16595.9     -0.333283  5.05737e-005      0.666641 -2.70248e-005      0.666641 -2.70248e-005     -0.333321  1.17745e-005
       16672.5     -0.333283  5.06983e-005      0.666641 -2.70951e-005      0.666641 -2.70951e-005     -0.333321  1.18016e-005
       16749.4     -0.333283  5.08232e-005      0.666641 -2.71657e-005      0.666641 -2.71657e-005     -0.333321  1.18288e-005
       16826.7     -0.333282  5.09485e-005      0.666641 -2.72364e-005      0.666641 -2.72364e-005     -0.333321  1.18561e-005
       16904.4     -0.333282  5.10741e-005      0.666641 -2.73073e-005      0.666641 -2.73073e-005     -0.333321  1.18834e-005
       16982.4     -0.333282     5.12e-005      0.666641 -2.73784e-005      0.666641 -2.73784e-005     -0.333321  1.19108e-005
       17060.8     -0.333282  5.13262e-005      0.666641 -2.74498e-005      0.666641 -2.74498e-005     -0.333321  1.19383e-005
       17139.6     -0.333282  5.14528e-005      0.666641 -2.75213e-005      0.666641 -2.75213e-005     -0.333321  1.19658e-005
       17218.7     -0.333282  5.15797e-005      0.666641  -2.7593e-005      0.666641  -2.7593e-005      -0.33332  1.19934e-005
       17298.2     -0.333282  5.17069e-005      0.666641  -2.7665e-005      0.666641  -2.7665e-005      -0.33332   1.2021e-005
         17378     -0.333282  5.18345e-005      0.666641 -2.77371e-005      0.666641 -2.77371e-005      -0.33332  1.20487e-005
       17458.2     -0.333282  5.19624e-005      0.666641 -2.78094e-005      0.666641 -2.78094e-005      -0.33332  1.20765e-005
       17538.8     -0.333281  5.20906e-005      0.666641  -2.7882e-005      0.666641  -2.7882e-005      -0.33332  1.21044e-005
       17619.8     -0.333281  5.22191e-005      0.666641 -2.79547e-005      0.666641 -2.79547e-005      -0.33332  1.21323e-005
       17701.1     -0.333281   5.2348e-005      0.666641 -2.80277e-005      0.666641 -2.80277e-005      -0.33332  1.21602e-005
       17782.8     -0.333281  5.24773e-005       0.66664 -2.81009e-005       0.66664 -2.81009e-005      -0.33332  1.21883e-005
       17864.9     -0.333281  5.26068e-005       0.66664 -2.81743e-005       0.66664 -2.81743e-005      -0.33332  1.22163e-005
       17947.3     -0.333281  5.27367e-005       0.66664 -2.82478e-005       0.66664 -2.82478e-005      -0.33332  1.22445e-005
       18030.2     -0.333281   5.2867e-005       0.66664 -2.83216e-005       0.66664 -2.83216e-005      -0.33332  1.22727e-005
       18113.4     -0.333281  5.29976e-005       0.66664 -2.83957e-005       0.66664 -2.83957e-005      -0.33332   1.2301e-005
         18197     -0.333281  5.31285e-005       0.66664 -2.84699e-005       0.66664 -2.84699e-005      -0.33332  1.23294e-005
         18281      -0.33328  5.32598e-005       0.66664 -2.85443e-005       0.66664 -2.85443e-005      -0.33332  1.23578e-005
       18365.4      -0.33328  5.33914e-005       0.66664 -2.86189e-005       0.66664 -2.86189e-005      -0.33332  1.23863e-005
       18450.2      -0.33328  5.35233e-005       0.66664 -2.86938e-005       0.66664 -2.86938e-005      -0.33332  1.24148e-005
       18535.3      -0.33328  5.36556e-005       0.66664 -2.87689e-005       0.66664 -2.87689e-005      -0.33332  1.24434e-005
       18620.9      -0.33328  5.37883e-005       0.66664 -2.88442e-005       0.66664 -2.88442e-005      -0.33332  1.24721e-005
       18706.8      -0.33328  5.39213e-005       0.66664 -2.89197e-005       0.66664 -2.89197e-005      -0.33332  1.25009e-005
       18793.2      -0.33328  5.40546e-005       0.66664 -2.89954e-005       0.66664 -2.89954e-005      -0.33332  1.25297e-005
       18879.9      -0.33328  5.41883e-005       0.66664 -2.90713e-005       0.66664 -2.90713e-005      -0.33332  1.25586e-005
       18967.1     -0.333279  5.43224e-005       0.66664 -2.91474e-005       0.66664 -2.91474e-005      -0.33332  1.25875e-005
       19054.6     -0.333279  5.44568e-005       0.66664 -2.92238e-005       0.66664 -2.92238e-005      -0.33332  1.26165e-005
       19142.6     -0.333279  5.45915e-005       0.66664 -2.93004e-005       0.66664 -2.93004e-005      -0.33332  1.26456e-005
       19230.9     -0.333279  5.47266e-005      0.666639 -2.93772e-005      0.666639 -2.93772e-005      -0.33332  1.26748e-005
       19319.7     -0.333279   5.4862e-005      0.666639 -2.94542e-005      0.666639 -2.94542e-005      -0.33332   1.2704e-005
       19408.9     -0.333279  5.49979e-005      0.666639 -2.95315e-005      0.666639 -2.95315e-005      -0.33332  1.27333e-005
       19498.4     -0.333279   5.5134e-005      0.666639 -2.96089e-005      0.666639 -2.96089e-005      -0.33332  1.27626e-005
       19588.4     -0.333279  5.52705e-005      0.666639 -2.96866e-005      0.666639 -2.96866e-005      -0.33332   1.2792e-005
       19678.9     -0.333279  5.54074e-005      0.666639 -2.97645e-005      0.666639 -2.97645e-005      -0.33332  1.28215e-005
       19769.7     -0.333278  5.55447e-005      0.666639 -2.98427e-005      0.666639 -2.98427e-005      -0.33332  1.28511e-005
       19860.9     -0.333278  5.56823e-005      0.666639  -2.9921e-005      0.666639  -2.9921e-005      -0.33332  1.28807e-005
       19952.6     -0.333278  5.58202e-005      0.666639 -2.99996e-005      0.666639 -2.99996e-005      -0.33332  1.29104e-005
       20044.7     -0.333278  5.59585e-005      0.666639 -3.00784e-005      0.666639 -3.00784e-005      -0.33332  1.29401e-005
       20137.2     -0.333278  5.60972e-005      0.666639 -3.01574e-005      0.666639 -3.01574e-005      -0.33332    1.297e-005
       20230.2     -0.333278  5.62363e-005      0.666639 -3.02367e-005      0.666639 -3.02367e-005     -0.333319  1.29999e-005
       20323.6     -0.333278  5.63757e-005      0.666639 -3.03162e-005      0.666639 -3.03162e-005     -0.333319  1.30298e-005
