! NPort=2 DATA=4501 NOISE=0 GROUPDELAY=0 COMPLEX_DATAFORMAT=RI
! NumOfBlock=1 NumOfParam=0
!
! .MODEL Smodel S TSTONEFILE=./link_rx/link_rx_s2/lr10000_10000000000000dec_2_1.s2p TYPE=S
!   -- The above .MODEL line can be used for the S element in the netlist.
!
!
# Hz S RI R             50
         10000  2.24861e-005  2.05655e-005 -1.85381e-006 -2.10391e-006 -1.85381e-006 -2.10391e-006      -0.99991  8.85311e-005
       10046.2  2.25333e-005  2.06129e-005 -1.85809e-006 -2.10934e-006 -1.85809e-006 -2.10934e-006      -0.99991  8.87497e-005
       10092.5  2.25807e-005  2.06604e-005 -1.86237e-006 -2.11478e-006 -1.86237e-006 -2.11478e-006     -0.999909  8.89688e-005
       10139.1  2.26282e-005   2.0708e-005 -1.86666e-006 -2.12024e-006 -1.86666e-006 -2.12024e-006     -0.999909  8.91885e-005
       10185.9  2.26758e-005  2.07558e-005 -1.87097e-006 -2.12571e-006 -1.87097e-006 -2.12571e-006     -0.999909  8.94088e-005
       10232.9  2.27235e-005  2.08036e-005 -1.87528e-006  -2.1312e-006 -1.87528e-006  -2.1312e-006     -0.999909  8.96297e-005
       10280.2  2.27713e-005  2.08516e-005  -1.8796e-006  -2.1367e-006  -1.8796e-006  -2.1367e-006     -0.999909  8.98511e-005
       10327.6  2.28192e-005  2.08996e-005 -1.88394e-006 -2.14222e-006 -1.88394e-006 -2.14222e-006     -0.999908  9.00731e-005
       10375.3  2.28673e-005  2.09478e-005 -1.88828e-006 -2.14776e-006 -1.88828e-006 -2.14776e-006     -0.999908  9.02957e-005
       10423.2  2.29154e-005  2.09961e-005 -1.89263e-006 -2.15331e-006 -1.89263e-006 -2.15331e-006     -0.999908  9.05189e-005
       10471.3  2.29637e-005  2.10445e-005 -1.89699e-006 -2.15888e-006 -1.89699e-006 -2.15888e-006     -0.999908  9.07427e-005
       10519.6  2.30121e-005   2.1093e-005 -1.90137e-006 -2.16446e-006 -1.90137e-006 -2.16446e-006     -0.999908   9.0967e-005
       10568.2  2.30605e-005  2.11416e-005 -1.90575e-006 -2.17005e-006 -1.90575e-006 -2.17005e-006     -0.999907  9.11919e-005
         10617  2.31091e-005  2.11904e-005 -1.91014e-006 -2.17567e-006 -1.91014e-006 -2.17567e-006     -0.999907  9.14175e-005
         10666  2.31578e-005  2.12392e-005 -1.91455e-006  -2.1813e-006 -1.91455e-006  -2.1813e-006     -0.999907  9.16436e-005
       10715.2  2.32066e-005  2.12882e-005 -1.91896e-006 -2.18694e-006 -1.91896e-006 -2.18694e-006     -0.999907  9.18703e-005
       10764.7  2.32556e-005  2.13373e-005 -1.92339e-006  -2.1926e-006 -1.92339e-006  -2.1926e-006     -0.999907  9.20976e-005
       10814.3  2.33046e-005  2.13864e-005 -1.92782e-006 -2.19828e-006 -1.92782e-006 -2.19828e-006     -0.999906  9.23255e-005
       10864.3  2.33538e-005  2.14357e-005 -1.93226e-006 -2.20397e-006 -1.93226e-006 -2.20397e-006     -0.999906   9.2554e-005
       10914.4   2.3403e-005  2.14852e-005 -1.93672e-006 -2.20968e-006 -1.93672e-006 -2.20968e-006     -0.999906  9.27831e-005
       10964.8  2.34524e-005  2.15347e-005 -1.94118e-006  -2.2154e-006 -1.94118e-006  -2.2154e-006     -0.999906  9.30128e-005
       11015.4  2.35019e-005  2.15843e-005 -1.94566e-006 -2.22114e-006 -1.94566e-006 -2.22114e-006     -0.999906   9.3243e-005
       11066.2  2.35515e-005  2.16341e-005 -1.95014e-006  -2.2269e-006 -1.95014e-006  -2.2269e-006     -0.999905  9.34739e-005
       11117.3  2.36012e-005  2.16839e-005 -1.95464e-006 -2.23267e-006 -1.95464e-006 -2.23267e-006     -0.999905  9.37055e-005
       11168.6   2.3651e-005  2.17339e-005 -1.95915e-006 -2.23846e-006 -1.95915e-006 -2.23846e-006     -0.999905  9.39376e-005
       11220.2   2.3701e-005   2.1784e-005 -1.96366e-006 -2.24427e-006 -1.96366e-006 -2.24427e-006     -0.999905  9.41703e-005
         11272  2.37511e-005  2.18342e-005 -1.96819e-006 -2.25009e-006 -1.96819e-006 -2.25009e-006     -0.999905  9.44036e-005
         11324  2.38012e-005  2.18846e-005 -1.97273e-006 -2.25593e-006 -1.97273e-006 -2.25593e-006     -0.999904  9.46376e-005
       11376.3  2.38515e-005   2.1935e-005 -1.97728e-006 -2.26178e-006 -1.97728e-006 -2.26178e-006     -0.999904  9.48721e-005
       11428.8  2.39019e-005  2.19856e-005 -1.98183e-006 -2.26766e-006 -1.98183e-006 -2.26766e-006     -0.999904  9.51073e-005
       11481.5  2.39525e-005  2.20363e-005  -1.9864e-006 -2.27354e-006  -1.9864e-006 -2.27354e-006     -0.999904  9.53431e-005
       11534.5  2.40031e-005  2.20871e-005 -1.99098e-006 -2.27945e-006 -1.99098e-006 -2.27945e-006     -0.999904  9.55795e-005
       11587.8  2.40539e-005   2.2138e-005 -1.99557e-006 -2.28537e-006 -1.99557e-006 -2.28537e-006     -0.999903  9.58165e-005
       11641.3  2.41047e-005   2.2189e-005 -2.00017e-006 -2.29131e-006 -2.00017e-006 -2.29131e-006     -0.999903  9.60542e-005
         11695  2.41557e-005  2.22401e-005 -2.00478e-006 -2.29726e-006 -2.00478e-006 -2.29726e-006     -0.999903  9.62925e-005
         11749  2.42068e-005  2.22914e-005 -2.00941e-006 -2.30323e-006 -2.00941e-006 -2.30323e-006     -0.999903  9.65314e-005
       11803.2  2.42581e-005  2.23428e-005 -2.01404e-006 -2.30922e-006 -2.01404e-006 -2.30922e-006     -0.999903  9.67709e-005
       11857.7  2.43094e-005  2.23943e-005 -2.01868e-006 -2.31523e-006 -2.01868e-006 -2.31523e-006     -0.999902  9.70111e-005
       11912.4  2.43609e-005  2.24459e-005 -2.02334e-006 -2.32125e-006 -2.02334e-006 -2.32125e-006     -0.999902  9.72519e-005
       11967.4  2.44124e-005  2.24977e-005   -2.028e-006 -2.32729e-006   -2.028e-006 -2.32729e-006     -0.999902  9.74934e-005
       12022.6  2.44641e-005  2.25495e-005 -2.03268e-006 -2.33335e-006 -2.03268e-006 -2.33335e-006     -0.999902  9.77354e-005
       12078.1   2.4516e-005  2.26015e-005 -2.03736e-006 -2.33942e-006 -2.03736e-006 -2.33942e-006     -0.999902  9.79782e-005
       12133.9  2.45679e-005  2.26536e-005 -2.04206e-006 -2.34551e-006 -2.04206e-006 -2.34551e-006     -0.999901  9.82215e-005
       12189.9  2.46199e-005  2.27058e-005 -2.04677e-006 -2.35162e-006 -2.04677e-006 -2.35162e-006     -0.999901  9.84655e-005
       12246.2  2.46721e-005  2.27582e-005 -2.05148e-006 -2.35774e-006 -2.05148e-006 -2.35774e-006     -0.999901  9.87101e-005
       12302.7  2.47244e-005  2.28106e-005 -2.05621e-006 -2.36389e-006 -2.05621e-006 -2.36389e-006     -0.999901  9.89554e-005
       12359.5  2.47768e-005  2.28632e-005 -2.06095e-006 -2.37005e-006 -2.06095e-006 -2.37005e-006     -0.999901  9.92014e-005
       12416.5  2.48294e-005  2.29159e-005 -2.06571e-006 -2.37622e-006 -2.06571e-006 -2.37622e-006       -0.9999  9.94479e-005
       12473.8   2.4882e-005  2.29687e-005 -2.07047e-006 -2.38242e-006 -2.07047e-006 -2.38242e-006       -0.9999  9.96952e-005
       12531.4  2.49348e-005  2.30217e-005 -2.07524e-006 -2.38863e-006 -2.07524e-006 -2.38863e-006       -0.9999   9.9943e-005
       12589.3  2.49877e-005  2.30747e-005 -2.08003e-006 -2.39486e-006 -2.08003e-006 -2.39486e-006       -0.9999   0.000100192
       12647.4  2.50407e-005  2.31279e-005 -2.08482e-006 -2.40111e-006 -2.08482e-006 -2.40111e-006     -0.999899   0.000100441
       12705.7  2.50939e-005  2.31812e-005 -2.08963e-006 -2.40738e-006 -2.08963e-006 -2.40738e-006     -0.999899   0.000100691
       12764.4  2.51471e-005  2.32347e-005 -2.09444e-006 -2.41366e-006 -2.09444e-006 -2.41366e-006     -0.999899   0.000100941
       12823.3  2.52005e-005  2.32882e-005 -2.09927e-006 -2.41996e-006 -2.09927e-006 -2.41996e-006     -0.999899   0.000101192
       12882.5   2.5254e-005  2.33419e-005 -2.10411e-006 -2.42628e-006 -2.10411e-006 -2.42628e-006     -0.999899   0.000101444
         12942  2.53076e-005  2.33957e-005 -2.10896e-006 -2.43262e-006 -2.10896e-006 -2.43262e-006     -0.999898   0.000101697
       13001.7  2.53614e-005  2.34496e-005 -2.11383e-006 -2.43897e-006 -2.11383e-006 -2.43897e-006     -0.999898    0.00010195
       13061.7  2.54153e-005  2.35037e-005  -2.1187e-006 -2.44535e-006  -2.1187e-006 -2.44535e-006     -0.999898   0.000102204
         13122  2.54693e-005  2.35579e-005 -2.12358e-006 -2.45174e-006 -2.12358e-006 -2.45174e-006     -0.999898   0.000102458
       13182.6  2.55234e-005  2.36122e-005 -2.12848e-006 -2.45815e-006 -2.12848e-006 -2.45815e-006     -0.999898   0.000102713
       13243.4  2.55777e-005  2.36666e-005 -2.13339e-006 -2.46458e-006 -2.13339e-006 -2.46458e-006     -0.999897   0.000102969
       13304.5   2.5632e-005  2.37212e-005  -2.1383e-006 -2.47103e-006  -2.1383e-006 -2.47103e-006     -0.999897   0.000103226
         13366  2.56865e-005  2.37758e-005 -2.14323e-006 -2.47749e-006 -2.14323e-006 -2.47749e-006     -0.999897   0.000103483
       13427.6  2.57412e-005  2.38307e-005 -2.14817e-006 -2.48397e-006 -2.14817e-006 -2.48397e-006     -0.999897   0.000103741
       13489.6  2.57959e-005  2.38856e-005 -2.15313e-006 -2.49048e-006 -2.15313e-006 -2.49048e-006     -0.999896      0.000104
       13551.9  2.58508e-005  2.39406e-005 -2.15809e-006   -2.497e-006 -2.15809e-006   -2.497e-006     -0.999896   0.000104259
       13614.4  2.59058e-005  2.39958e-005 -2.16307e-006 -2.50354e-006 -2.16307e-006 -2.50354e-006     -0.999896   0.000104519
       13677.3  2.59609e-005  2.40511e-005 -2.16805e-006 -2.51009e-006 -2.16805e-006 -2.51009e-006     -0.999896   0.000104779
       13740.4  2.60162e-005  2.41066e-005 -2.17305e-006 -2.51667e-006 -2.17305e-006 -2.51667e-006     -0.999896   0.000105041
       13803.8  2.60715e-005  2.41622e-005 -2.17806e-006 -2.52327e-006 -2.17806e-006 -2.52327e-006     -0.999895   0.000105303
       13867.6  2.61271e-005  2.42178e-005 -2.18308e-006 -2.52988e-006 -2.18308e-006 -2.52988e-006     -0.999895   0.000105566
       13931.6  2.61827e-005  2.42737e-005 -2.18812e-006 -2.53651e-006 -2.18812e-006 -2.53651e-006     -0.999895   0.000105829
       13995.9  2.62385e-005  2.43296e-005 -2.19316e-006 -2.54317e-006 -2.19316e-006 -2.54317e-006     -0.999895   0.000106093
       14060.5  2.62944e-005  2.43857e-005 -2.19822e-006 -2.54984e-006 -2.19822e-006 -2.54984e-006     -0.999894   0.000106358
       14125.4  2.63504e-005  2.44419e-005 -2.20328e-006 -2.55653e-006 -2.20328e-006 -2.55653e-006     -0.999894   0.000106624
       14190.6  2.64065e-005  2.44983e-005 -2.20836e-006 -2.56324e-006 -2.20836e-006 -2.56324e-006     -0.999894    0.00010689
       14256.1  2.64628e-005  2.45547e-005 -2.21345e-006 -2.56997e-006 -2.21345e-006 -2.56997e-006     -0.999894   0.000107157
       14321.9  2.65192e-005  2.46113e-005 -2.21856e-006 -2.57671e-006 -2.21856e-006 -2.57671e-006     -0.999894   0.000107424
         14388  2.65757e-005  2.46681e-005 -2.22367e-006 -2.58348e-006 -2.22367e-006 -2.58348e-006     -0.999893   0.000107693
       14454.4  2.66324e-005  2.47249e-005  -2.2288e-006 -2.59027e-006  -2.2288e-006 -2.59027e-006     -0.999893   0.000107962
       14521.1  2.66892e-005  2.47819e-005 -2.23394e-006 -2.59708e-006 -2.23394e-006 -2.59708e-006     -0.999893   0.000108232
       14588.1  2.67461e-005   2.4839e-005 -2.23909e-006  -2.6039e-006 -2.23909e-006  -2.6039e-006     -0.999893   0.000108502
       14655.5  2.68032e-005  2.48963e-005 -2.24425e-006 -2.61075e-006 -2.24425e-006 -2.61075e-006     -0.999892   0.000108773
       14723.1  2.68604e-005  2.49537e-005 -2.24942e-006 -2.61761e-006 -2.24942e-006 -2.61761e-006     -0.999892   0.000109045
       14791.1  2.69177e-005  2.50112e-005 -2.25461e-006  -2.6245e-006 -2.25461e-006  -2.6245e-006     -0.999892   0.000109318
       14859.4  2.69752e-005  2.50689e-005 -2.25981e-006  -2.6314e-006 -2.25981e-006  -2.6314e-006     -0.999892   0.000109592
       14927.9  2.70327e-005  2.51267e-005 -2.26502e-006 -2.63833e-006 -2.26502e-006 -2.63833e-006     -0.999891   0.000109866
       14996.8  2.70905e-005  2.51846e-005 -2.27024e-006 -2.64527e-006 -2.27024e-006 -2.64527e-006     -0.999891   0.000110141
       15066.1  2.71483e-005  2.52426e-005 -2.27547e-006 -2.65224e-006 -2.27547e-006 -2.65224e-006     -0.999891   0.000110416
       15135.6  2.72063e-005  2.53008e-005 -2.28072e-006 -2.65922e-006 -2.28072e-006 -2.65922e-006     -0.999891   0.000110693
       15205.5  2.72644e-005  2.53591e-005 -2.28598e-006 -2.66622e-006 -2.28598e-006 -2.66622e-006     -0.999891    0.00011097
       15275.7  2.73227e-005  2.54176e-005 -2.29125e-006 -2.67325e-006 -2.29125e-006 -2.67325e-006      -0.99989   0.000111247
       15346.2   2.7381e-005  2.54762e-005 -2.29653e-006 -2.68029e-006 -2.29653e-006 -2.68029e-006      -0.99989   0.000111526
         15417  2.74396e-005  2.55349e-005 -2.30182e-006 -2.68736e-006 -2.30182e-006 -2.68736e-006      -0.99989   0.000111805
       15488.2  2.74982e-005  2.55938e-005 -2.30713e-006 -2.69445e-006 -2.30713e-006 -2.69445e-006      -0.99989   0.000112085
       15559.7   2.7557e-005  2.56528e-005 -2.31245e-006 -2.70155e-006 -2.31245e-006 -2.70155e-006     -0.999889   0.000112366
       15631.5  2.76159e-005  2.57119e-005 -2.31778e-006 -2.70868e-006 -2.31778e-006 -2.70868e-006     -0.999889   0.000112648
       15703.6   2.7675e-005  2.57712e-005 -2.32312e-006 -2.71583e-006 -2.32312e-006 -2.71583e-006     -0.999889    0.00011293
       15776.1  2.77342e-005  2.58306e-005 -2.32848e-006 -2.72299e-006 -2.32848e-006 -2.72299e-006     -0.999889   0.000113213
       15848.9  2.77935e-005  2.58901e-005 -2.33385e-006 -2.73018e-006 -2.33385e-006 -2.73018e-006     -0.999888   0.000113497
       15922.1   2.7853e-005  2.59498e-005 -2.33923e-006 -2.73739e-006 -2.33923e-006 -2.73739e-006     -0.999888   0.000113782
       15995.6  2.79126e-005  2.60096e-005 -2.34462e-006 -2.74462e-006 -2.34462e-006 -2.74462e-006     -0.999888   0.000114067
       16069.4  2.79723e-005  2.60696e-005 -2.35003e-006 -2.75187e-006 -2.35003e-006 -2.75187e-006     -0.999888   0.000114353
       16143.6  2.80322e-005  2.61296e-005 -2.35544e-006 -2.75915e-006 -2.35544e-006 -2.75915e-006     -0.999887    0.00011464
       16218.1  2.80922e-005  2.61899e-005 -2.36087e-006 -2.76644e-006 -2.36087e-006 -2.76644e-006     -0.999887   0.000114928
         16293  2.81523e-005  2.62503e-005 -2.36632e-006 -2.77375e-006 -2.36632e-006 -2.77375e-006     -0.999887   0.000115216
       16368.2  2.82126e-005  2.63108e-005 -2.37177e-006 -2.78109e-006 -2.37177e-006 -2.78109e-006     -0.999887   0.000115505
       16443.7  2.82731e-005  2.63714e-005 -2.37724e-006 -2.78845e-006 -2.37724e-006 -2.78845e-006     -0.999887   0.000115795
       16519.6  2.83336e-005  2.64322e-005 -2.38272e-006 -2.79582e-006 -2.38272e-006 -2.79582e-006     -0.999886   0.000116086
       16595.9  2.83943e-005  2.64931e-005 -2.38822e-006 -2.80322e-006 -2.38822e-006 -2.80322e-006     -0.999886   0.000116377
       16672.5  2.84552e-005  2.65542e-005 -2.39372e-006 -2.81064e-006 -2.39372e-006 -2.81064e-006     -0.999886    0.00011667
       16749.4  2.85162e-005  2.66154e-005 -2.39924e-006 -2.81809e-006 -2.39924e-006 -2.81809e-006     -0.999886   0.000116963
       16826.7  2.85773e-005  2.66768e-005 -2.40477e-006 -2.82555e-006 -2.40477e-006 -2.82555e-006     -0.999885   0.000117257
       16904.4  2.86386e-005  2.67382e-005 -2.41032e-006 -2.83304e-006 -2.41031e-006 -2.83304e-006     -0.999885   0.000117551
       16982.4     2.87e-005  2.67999e-005 -2.41587e-006 -2.84055e-006 -2.41587e-006 -2.84055e-006     -0.999885   0.000117847
       17060.8  2.87615e-005  2.68617e-005 -2.42144e-006 -2.84807e-006 -2.42144e-006 -2.84807e-006     -0.999885   0.000118143
       17139.6  2.88232e-005  2.69236e-005 -2.42702e-006 -2.85563e-006 -2.42702e-006 -2.85563e-006     -0.999884    0.00011844
       17218.7   2.8885e-005  2.69856e-005 -2.43262e-006  -2.8632e-006 -2.43262e-006  -2.8632e-006     -0.999884   0.000118738
       17298.2   2.8947e-005  2.70478e-005 -2.43823e-006 -2.87079e-006 -2.43823e-006 -2.87079e-006     -0.999884   0.000119037
         17378  2.90091e-005  2.71102e-005 -2.44385e-006 -2.87841e-006 -2.44385e-006 -2.87841e-006     -0.999884   0.000119336
       17458.2  2.90714e-005  2.71727e-005 -2.44948e-006 -2.88605e-006 -2.44948e-006 -2.88605e-006     -0.999883   0.000119636
       17538.8  2.91338e-005  2.72353e-005 -2.45513e-006 -2.89371e-006 -2.45513e-006 -2.89371e-006     -0.999883   0.000119937
       17619.8  2.91963e-005  2.72981e-005 -2.46079e-006  -2.9014e-006 -2.46079e-006  -2.9014e-006     -0.999883   0.000120239
       17701.1   2.9259e-005   2.7361e-005 -2.46646e-006  -2.9091e-006 -2.46646e-006  -2.9091e-006     -0.999883   0.000120542
       17782.8  2.93218e-005  2.74241e-005 -2.47215e-006 -2.91683e-006 -2.47215e-006 -2.91683e-006     -0.999882   0.000120845
       17864.9  2.93848e-005  2.74873e-005 -2.47785e-006 -2.92458e-006 -2.47785e-006 -2.92458e-006     -0.999882    0.00012115
       17947.3  2.94479e-005  2.75507e-005 -2.48356e-006 -2.93236e-006 -2.48356e-006 -2.93236e-006     -0.999882   0.000121455
       18030.2  2.95112e-005  2.76142e-005 -2.48929e-006 -2.94015e-006 -2.48929e-006 -2.94015e-006     -0.999882   0.000121761
       18113.4  2.95746e-005  2.76778e-005 -2.49503e-006 -2.94797e-006 -2.49503e-006 -2.94797e-006     -0.999881   0.000122068
         18197  2.96381e-005  2.77416e-005 -2.50078e-006 -2.95582e-006 -2.50078e-006 -2.95582e-006     -0.999881   0.000122375
         18281  2.97018e-005  2.78056e-005 -2.50654e-006 -2.96368e-006 -2.50654e-006 -2.96368e-006     -0.999881   0.000122684
       18365.4  2.97657e-005  2.78697e-005 -2.51232e-006 -2.97157e-006 -2.51232e-006 -2.97157e-006     -0.999881   0.000122993
       18450.2  2.98297e-005  2.79339e-005 -2.51812e-006 -2.97948e-006 -2.51812e-006 -2.97948e-006      -0.99988   0.000123303
       18535.3  2.98938e-005  2.79983e-005 -2.52392e-006 -2.98742e-006 -2.52392e-006 -2.98742e-006      -0.99988   0.000123614
       18620.9  2.99581e-005  2.80628e-005 -2.52974e-006 -2.99537e-006 -2.52974e-006 -2.99537e-006      -0.99988   0.000123926
       18706.8  3.00225e-005  2.81275e-005 -2.53557e-006 -3.00335e-006 -2.53557e-006 -3.00335e-006     -0.999879   0.000124239
       18793.2  3.00871e-005  2.81924e-005 -2.54142e-006 -3.01136e-006 -2.54142e-006 -3.01136e-006     -0.999879   0.000124552
       18879.9  3.01519e-005  2.82573e-005 -2.54728e-006 -3.01939e-006 -2.54728e-006 -3.01939e-006     -0.999879   0.000124866
       18967.1  3.02167e-005  2.83225e-005 -2.55315e-006 -3.02744e-006 -2.55315e-006 -3.02744e-006     -0.999879   0.000125182
       19054.6  3.02818e-005  2.83878e-005 -2.55904e-006 -3.03551e-006 -2.55904e-006 -3.03551e-006     -0.999878   0.000125498
       19142.6  3.03469e-005  2.84532e-005 -2.56494e-006 -3.04361e-006 -2.56494e-006 -3.04361e-006     -0.999878   0.000125815
       19230.9  3.04123e-005  2.85188e-005 -2.57085e-006 -3.05173e-006 -2.57085e-006 -3.05173e-006     -0.999878   0.000126132
       19319.7  3.04778e-005  2.85845e-005 -2.57678e-006 -3.05988e-006 -2.57678e-006 -3.05988e-006     -0.999878   0.000126451
       19408.9  3.05434e-005  2.86504e-005 -2.58272e-006 -3.06805e-006 -2.58272e-006 -3.06805e-006     -0.999877    0.00012677
       19498.4  3.06092e-005  2.87165e-005 -2.58867e-006 -3.07624e-006 -2.58867e-006 -3.07624e-006     -0.999877   0.000127091
       19588.4  3.06751e-005  2.87826e-005 -2.59464e-006 -3.08446e-006 -2.59464e-006 -3.08446e-006     -0.999877   0.000127412
       19678.9  3.07412e-005   2.8849e-005 -2.60062e-006  -3.0927e-006 -2.60062e-006  -3.0927e-006     -0.999877   0.000127734
       19769.7  3.08074e-005  2.89155e-005 -2.60662e-006 -3.10097e-006 -2.60662e-006 -3.10097e-006     -0.999876   0.000128057
       19860.9  3.08738e-005  2.89821e-005 -2.61263e-006 -3.10926e-006 -2.61263e-006 -3.10926e-006     -0.999876   0.000128381
       19952.6  3.09403e-005   2.9049e-005 -2.61865e-006 -3.11758e-006 -2.61865e-006 -3.11758e-006     -0.999876   0.000128705
       20044.7   3.1007e-005  2.91159e-005 -2.62469e-006 -3.12592e-006 -2.62469e-006 -3.12592e-006     -0.999876   0.000129031
       20137.2  3.10739e-005   2.9183e-005 -2.63074e-006 -3.13428e-006 -2.63074e-006 -3.13428e-006     -0.999875   0.000129358
       20230.2  3.11409e-005  2.92503e-005  -2.6368e-006 -3.14267e-006  -2.6368e-006 -3.14267e-006     -0.999875   0.000129685
       20323.6   3.1208e-005  2.93177e-005 -2.64288e-006 -3.15108e-006 -2.64288e-006 -3.15108e-006     -0.999875   0.000130013
