! NPort=2 DATA=4501 NOISE=0 GROUPDELAY=0 COMPLEX_DATAFORMAT=RI
! NumOfBlock=1 NumOfParam=0
!
! .MODEL Smodel S TSTONEFILE=./link_rx/link_rx_s2/lr10000_10000000000000dec_0_1.s2p TYPE=S
!   -- The above .MODEL line can be used for the S element in the netlist.
!
!
# Hz S RI R             50
         10000     -0.333293  3.86537e-005      0.666647 -2.03741e-005      0.666647 -2.03741e-005     -0.333323  9.13986e-006
       10046.2     -0.333293  3.87477e-005      0.666647 -2.04259e-005      0.666647 -2.04259e-005     -0.333323  9.16092e-006
       10092.5     -0.333293  3.88419e-005      0.666646 -2.04778e-005      0.666646 -2.04778e-005     -0.333323  9.18204e-006
       10139.1     -0.333293  3.89363e-005      0.666646 -2.05299e-005      0.666646 -2.05299e-005     -0.333323   9.2032e-006
       10185.9     -0.333293  3.90309e-005      0.666646 -2.05822e-005      0.666646 -2.05822e-005     -0.333323  9.22442e-006
       10232.9     -0.333293  3.91258e-005      0.666646 -2.06345e-005      0.666646 -2.06345e-005     -0.333323  9.24568e-006
       10280.2     -0.333293   3.9221e-005      0.666646  -2.0687e-005      0.666646  -2.0687e-005     -0.333323  9.26699e-006
       10327.6     -0.333293  3.93164e-005      0.666646 -2.07397e-005      0.666646 -2.07397e-005     -0.333323  9.28835e-006
       10375.3     -0.333293   3.9412e-005      0.666646 -2.07925e-005      0.666646 -2.07925e-005     -0.333323  9.30977e-006
       10423.2     -0.333292  3.95079e-005      0.666646 -2.08455e-005      0.666646 -2.08455e-005     -0.333323  9.33122e-006
       10471.3     -0.333292   3.9604e-005      0.666646 -2.08986e-005      0.666646 -2.08986e-005     -0.333323  9.35273e-006
       10519.6     -0.333292  3.97003e-005      0.666646 -2.09518e-005      0.666646 -2.09518e-005     -0.333323  9.37429e-006
       10568.2     -0.333292  3.97969e-005      0.666646 -2.10052e-005      0.666646 -2.10052e-005     -0.333323   9.3959e-006
         10617     -0.333292  3.98938e-005      0.666646 -2.10587e-005      0.666646 -2.10587e-005     -0.333323  9.41756e-006
         10666     -0.333292  3.99909e-005      0.666646 -2.11124e-005      0.666646 -2.11124e-005     -0.333323  9.43927e-006
       10715.2     -0.333292  4.00882e-005      0.666646 -2.11662e-005      0.666646 -2.11662e-005     -0.333323  9.46103e-006
       10764.7     -0.333292  4.01858e-005      0.666646 -2.12202e-005      0.666646 -2.12202e-005     -0.333323  9.48283e-006
       10814.3     -0.333292  4.02837e-005      0.666646 -2.12743e-005      0.666646 -2.12743e-005     -0.333323  9.50469e-006
       10864.3     -0.333292  4.03817e-005      0.666646 -2.13286e-005      0.666646 -2.13286e-005     -0.333323   9.5266e-006
       10914.4     -0.333292  4.04801e-005      0.666646  -2.1383e-005      0.666646  -2.1383e-005     -0.333323  9.54856e-006
       10964.8     -0.333292  4.05787e-005      0.666646 -2.14376e-005      0.666646 -2.14376e-005     -0.333323  9.57057e-006
       11015.4     -0.333291  4.06775e-005      0.666646 -2.14923e-005      0.666646 -2.14923e-005     -0.333323  9.59263e-006
       11066.2     -0.333291  4.07766e-005      0.666646 -2.15472e-005      0.666646 -2.15472e-005     -0.333323  9.61475e-006
       11117.3     -0.333291   4.0876e-005      0.666646 -2.16022e-005      0.666646 -2.16022e-005     -0.333323  9.63691e-006
       11168.6     -0.333291  4.09756e-005      0.666646 -2.16574e-005      0.666646 -2.16574e-005     -0.333323  9.65912e-006
       11220.2     -0.333291  4.10754e-005      0.666645 -2.17127e-005      0.666645 -2.17127e-005     -0.333323  9.68139e-006
         11272     -0.333291  4.11755e-005      0.666645 -2.17682e-005      0.666645 -2.17682e-005     -0.333323   9.7037e-006
         11324     -0.333291  4.12759e-005      0.666645 -2.18238e-005      0.666645 -2.18238e-005     -0.333323  9.72607e-006
       11376.3     -0.333291  4.13765e-005      0.666645 -2.18796e-005      0.666645 -2.18796e-005     -0.333323  9.74849e-006
       11428.8     -0.333291  4.14774e-005      0.666645 -2.19355e-005      0.666645 -2.19355e-005     -0.333323  9.77096e-006
       11481.5     -0.333291  4.15785e-005      0.666645 -2.19916e-005      0.666645 -2.19916e-005     -0.333323  9.79349e-006
       11534.5     -0.333291  4.16799e-005      0.666645 -2.20479e-005      0.666645 -2.20479e-005     -0.333323  9.81606e-006
       11587.8      -0.33329  4.17816e-005      0.666645 -2.21043e-005      0.666645 -2.21043e-005     -0.333323  9.83869e-006
       11641.3      -0.33329  4.18835e-005      0.666645 -2.21609e-005      0.666645 -2.21609e-005     -0.333323  9.86137e-006
         11695      -0.33329  4.19857e-005      0.666645 -2.22176e-005      0.666645 -2.22176e-005     -0.333323   9.8841e-006
         11749      -0.33329  4.20881e-005      0.666645 -2.22744e-005      0.666645 -2.22744e-005     -0.333323  9.90688e-006
       11803.2      -0.33329  4.21908e-005      0.666645 -2.23315e-005      0.666645 -2.23315e-005     -0.333323  9.92972e-006
       11857.7      -0.33329  4.22938e-005      0.666645 -2.23887e-005      0.666645 -2.23887e-005     -0.333323  9.95261e-006
       11912.4      -0.33329   4.2397e-005      0.666645  -2.2446e-005      0.666645  -2.2446e-005     -0.333323  9.97555e-006
       11967.4      -0.33329  4.25005e-005      0.666645 -2.25035e-005      0.666645 -2.25035e-005     -0.333322  9.99854e-006
       12022.6      -0.33329  4.26043e-005      0.666645 -2.25612e-005      0.666645 -2.25612e-005     -0.333322  1.00216e-005
       12078.1      -0.33329  4.27083e-005      0.666645  -2.2619e-005      0.666645  -2.2619e-005     -0.333322  1.00447e-005
       12133.9      -0.33329  4.28126e-005      0.666645  -2.2677e-005      0.666645  -2.2677e-005     -0.333322  1.00678e-005
       12189.9     -0.333289  4.29172e-005      0.666645 -2.27351e-005      0.666645 -2.27351e-005     -0.333322  1.00911e-005
       12246.2     -0.333289   4.3022e-005      0.666645 -2.27934e-005      0.666645 -2.27934e-005     -0.333322  1.01143e-005
       12302.7     -0.333289  4.31271e-005      0.666645 -2.28519e-005      0.666645 -2.28519e-005     -0.333322  1.01376e-005
       12359.5     -0.333289  4.32324e-005      0.666645 -2.29105e-005      0.666645 -2.29105e-005     -0.333322   1.0161e-005
       12416.5     -0.333289  4.33381e-005      0.666644 -2.29693e-005      0.666644 -2.29693e-005     -0.333322  1.01844e-005
       12473.8     -0.333289   4.3444e-005      0.666644 -2.30283e-005      0.666644 -2.30283e-005     -0.333322  1.02079e-005
       12531.4     -0.333289  4.35502e-005      0.666644 -2.30874e-005      0.666644 -2.30874e-005     -0.333322  1.02314e-005
       12589.3     -0.333289  4.36566e-005      0.666644 -2.31467e-005      0.666644 -2.31467e-005     -0.333322   1.0255e-005
       12647.4     -0.333289  4.37633e-005      0.666644 -2.32061e-005      0.666644 -2.32061e-005     -0.333322  1.02786e-005
       12705.7     -0.333289  4.38703e-005      0.666644 -2.32657e-005      0.666644 -2.32657e-005     -0.333322  1.03023e-005
       12764.4     -0.333289  4.39776e-005      0.666644 -2.33255e-005      0.666644 -2.33255e-005     -0.333322  1.03261e-005
       12823.3     -0.333288  4.40852e-005      0.666644 -2.33855e-005      0.666644 -2.33855e-005     -0.333322  1.03499e-005
       12882.5     -0.333288   4.4193e-005      0.666644 -2.34456e-005      0.666644 -2.34456e-005     -0.333322  1.03737e-005
         12942     -0.333288  4.43011e-005      0.666644 -2.35058e-005      0.666644 -2.35058e-005     -0.333322  1.03977e-005
       13001.7     -0.333288  4.44095e-005      0.666644 -2.35663e-005      0.666644 -2.35663e-005     -0.333322  1.04216e-005
       13061.7     -0.333288  4.45181e-005      0.666644 -2.36269e-005      0.666644 -2.36269e-005     -0.333322  1.04456e-005
         13122     -0.333288  4.46271e-005      0.666644 -2.36877e-005      0.666644 -2.36877e-005     -0.333322  1.04697e-005
       13182.6     -0.333288  4.47363e-005      0.666644 -2.37486e-005      0.666644 -2.37486e-005     -0.333322  1.04939e-005
       13243.4     -0.333288  4.48458e-005      0.666644 -2.38098e-005      0.666644 -2.38098e-005     -0.333322   1.0518e-005
       13304.5     -0.333288  4.49556e-005      0.666644 -2.38711e-005      0.666644 -2.38711e-005     -0.333322  1.05423e-005
         13366     -0.333288  4.50656e-005      0.666644 -2.39325e-005      0.666644 -2.39325e-005     -0.333322  1.05666e-005
       13427.6     -0.333287   4.5176e-005      0.666644 -2.39942e-005      0.666644 -2.39942e-005     -0.333322   1.0591e-005
       13489.6     -0.333287  4.52866e-005      0.666644  -2.4056e-005      0.666644  -2.4056e-005     -0.333322  1.06154e-005
       13551.9     -0.333287  4.53975e-005      0.666644 -2.41179e-005      0.666644 -2.41179e-005     -0.333322  1.06398e-005
       13614.4     -0.333287  4.55087e-005      0.666644 -2.41801e-005      0.666644 -2.41801e-005     -0.333322  1.06644e-005
       13677.3     -0.333287  4.56202e-005      0.666643 -2.42424e-005      0.666643 -2.42424e-005     -0.333322  1.06889e-005
       13740.4     -0.333287   4.5732e-005      0.666643 -2.43049e-005      0.666643 -2.43049e-005     -0.333322  1.07136e-005
       13803.8     -0.333287  4.58441e-005      0.666643 -2.43676e-005      0.666643 -2.43676e-005     -0.333322  1.07383e-005
       13867.6     -0.333287  4.59564e-005      0.666643 -2.44304e-005      0.666643 -2.44304e-005     -0.333322   1.0763e-005
       13931.6     -0.333287  4.60691e-005      0.666643 -2.44935e-005      0.666643 -2.44935e-005     -0.333322  1.07878e-005
       13995.9     -0.333287   4.6182e-005      0.666643 -2.45567e-005      0.666643 -2.45567e-005     -0.333322  1.08127e-005
       14060.5     -0.333286  4.62952e-005      0.666643   -2.462e-005      0.666643   -2.462e-005     -0.333322  1.08376e-005
       14125.4     -0.333286  4.64087e-005      0.666643 -2.46836e-005      0.666643 -2.46836e-005     -0.333322  1.08626e-005
       14190.6     -0.333286  4.65225e-005      0.666643 -2.47473e-005      0.666643 -2.47473e-005     -0.333322  1.08876e-005
       14256.1     -0.333286  4.66367e-005      0.666643 -2.48112e-005      0.666643 -2.48112e-005     -0.333322  1.09127e-005
       14321.9     -0.333286  4.67511e-005      0.666643 -2.48753e-005      0.666643 -2.48753e-005     -0.333322  1.09379e-005
         14388     -0.333286  4.68657e-005      0.666643 -2.49396e-005      0.666643 -2.49396e-005     -0.333322  1.09631e-005
       14454.4     -0.333286  4.69807e-005      0.666643 -2.50041e-005      0.666643 -2.50041e-005     -0.333321  1.09884e-005
       14521.1     -0.333286   4.7096e-005      0.666643 -2.50687e-005      0.666643 -2.50687e-005     -0.333321  1.10137e-005
       14588.1     -0.333286  4.72116e-005      0.666643 -2.51335e-005      0.666643 -2.51335e-005     -0.333321  1.10391e-005
       14655.5     -0.333286  4.73275e-005      0.666643 -2.51985e-005      0.666643 -2.51985e-005     -0.333321  1.10645e-005
       14723.1     -0.333285  4.74437e-005      0.666643 -2.52637e-005      0.666643 -2.52637e-005     -0.333321  1.10901e-005
       14791.1     -0.333285  4.75602e-005      0.666643  -2.5329e-005      0.666643  -2.5329e-005     -0.333321  1.11156e-005
       14859.4     -0.333285   4.7677e-005      0.666643 -2.53946e-005      0.666643 -2.53946e-005     -0.333321  1.11412e-005
       14927.9     -0.333285   4.7794e-005      0.666643 -2.54603e-005      0.666643 -2.54603e-005     -0.333321  1.11669e-005
       14996.8     -0.333285  4.79114e-005      0.666642 -2.55262e-005      0.666642 -2.55262e-005     -0.333321  1.11927e-005
       15066.1     -0.333285  4.80291e-005      0.666642 -2.55923e-005      0.666642 -2.55923e-005     -0.333321  1.12185e-005
       15135.6     -0.333285  4.81471e-005      0.666642 -2.56586e-005      0.666642 -2.56586e-005     -0.333321  1.12443e-005
       15205.5     -0.333285  4.82654e-005      0.666642 -2.57251e-005      0.666642 -2.57251e-005     -0.333321  1.12702e-005
       15275.7     -0.333285   4.8384e-005      0.666642 -2.57917e-005      0.666642 -2.57917e-005     -0.333321  1.12962e-005
       15346.2     -0.333285   4.8503e-005      0.666642 -2.58586e-005      0.666642 -2.58586e-005     -0.333321  1.13222e-005
         15417     -0.333284  4.86222e-005      0.666642 -2.59256e-005      0.666642 -2.59256e-005     -0.333321  1.13484e-005
       15488.2     -0.333284  4.87417e-005      0.666642 -2.59928e-005      0.666642 -2.59928e-005     -0.333321  1.13745e-005
       15559.7     -0.333284  4.88616e-005      0.666642 -2.60602e-005      0.666642 -2.60602e-005     -0.333321  1.14007e-005
       15631.5     -0.333284  4.89817e-005      0.666642 -2.61278e-005      0.666642 -2.61278e-005     -0.333321   1.1427e-005
       15703.6     -0.333284  4.91022e-005      0.666642 -2.61956e-005      0.666642 -2.61956e-005     -0.333321  1.14533e-005
       15776.1     -0.333284   4.9223e-005      0.666642 -2.62636e-005      0.666642 -2.62636e-005     -0.333321  1.14797e-005
       15848.9     -0.333284  4.93441e-005      0.666642 -2.63318e-005      0.666642 -2.63318e-005     -0.333321  1.15062e-005
       15922.1     -0.333284  4.94655e-005      0.666642 -2.64001e-005      0.666642 -2.64001e-005     -0.333321  1.15327e-005
       15995.6     -0.333284  4.95872e-005      0.666642 -2.64687e-005      0.666642 -2.64687e-005     -0.333321  1.15593e-005
       16069.4     -0.333283  4.97093e-005      0.666642 -2.65375e-005      0.666642 -2.65375e-005     -0.333321   1.1586e-005
       16143.6     -0.333283  4.98316e-005      0.666642 -2.66064e-005      0.666642 -2.66064e-005     -0.333321  1.16127e-005
       16218.1     -0.333283  4.99543e-005      0.666642 -2.66755e-005      0.666642 -2.66755e-005     -0.333321  1.16394e-005
         16293     -0.333283  5.00773e-005      0.666642 -2.67449e-005      0.666642 -2.67449e-005     -0.333321  1.16663e-005
       16368.2     -0.333283  5.02006e-005      0.666641 -2.68144e-005      0.666641 -2.68144e-005     -0.333321  1.16932e-005
       16443.7     -0.333283  5.03243e-005      0.666641 -2.68841e-005      0.666641 -2.68841e-005     -0.333321  1.17201e-005
       16519.6     -0.333283  5.04482e-005      0.666641 -2.69541e-005      0.666641 -2.69541e-005     -0.333321  1.17471e-005
       16595.9     -0.333283  5.05725e-005      0.666641 -2.70242e-005      0.666641 -2.70242e-005     -0.333321  1.17742e-005
       16672.5     -0.333283  5.06971e-005      0.666641 -2.70945e-005      0.666641 -2.70945e-005     -0.333321  1.18013e-005
       16749.4     -0.333283   5.0822e-005      0.666641  -2.7165e-005      0.666641  -2.7165e-005     -0.333321  1.18285e-005
       16826.7     -0.333282  5.09473e-005      0.666641 -2.72358e-005      0.666641 -2.72358e-005     -0.333321  1.18558e-005
       16904.4     -0.333282  5.10729e-005      0.666641 -2.73067e-005      0.666641 -2.73067e-005     -0.333321  1.18831e-005
       16982.4     -0.333282  5.11988e-005      0.666641 -2.73778e-005      0.666641 -2.73778e-005     -0.333321  1.19105e-005
       17060.8     -0.333282   5.1325e-005      0.666641 -2.74491e-005      0.666641 -2.74491e-005     -0.333321   1.1938e-005
       17139.6     -0.333282  5.14516e-005      0.666641 -2.75207e-005      0.666641 -2.75207e-005     -0.333321  1.19655e-005
       17218.7     -0.333282  5.15784e-005      0.666641 -2.75924e-005      0.666641 -2.75924e-005      -0.33332  1.19931e-005
       17298.2     -0.333282  5.17057e-005      0.666641 -2.76643e-005      0.666641 -2.76643e-005      -0.33332  1.20207e-005
         17378     -0.333282  5.18332e-005      0.666641 -2.77365e-005      0.666641 -2.77365e-005      -0.33332  1.20484e-005
       17458.2     -0.333282  5.19611e-005      0.666641 -2.78088e-005      0.666641 -2.78088e-005      -0.33332  1.20762e-005
       17538.8     -0.333281  5.20893e-005      0.666641 -2.78814e-005      0.666641 -2.78814e-005      -0.33332   1.2104e-005
       17619.8     -0.333281  5.22179e-005      0.666641 -2.79541e-005      0.666641 -2.79541e-005      -0.33332  1.21319e-005
       17701.1     -0.333281  5.23468e-005      0.666641 -2.80271e-005      0.666641 -2.80271e-005      -0.33332  1.21599e-005
       17782.8     -0.333281   5.2476e-005       0.66664 -2.81003e-005       0.66664 -2.81003e-005      -0.33332  1.21879e-005
       17864.9     -0.333281  5.26056e-005       0.66664 -2.81736e-005       0.66664 -2.81736e-005      -0.33332   1.2216e-005
       17947.3     -0.333281  5.27355e-005       0.66664 -2.82472e-005       0.66664 -2.82472e-005      -0.33332  1.22442e-005
       18030.2     -0.333281  5.28657e-005       0.66664  -2.8321e-005       0.66664  -2.8321e-005      -0.33332  1.22724e-005
       18113.4     -0.333281  5.29963e-005       0.66664  -2.8395e-005       0.66664  -2.8395e-005      -0.33332  1.23007e-005
         18197     -0.333281  5.31272e-005       0.66664 -2.84692e-005       0.66664 -2.84692e-005      -0.33332  1.23291e-005
         18281      -0.33328  5.32585e-005       0.66664 -2.85437e-005       0.66664 -2.85437e-005      -0.33332  1.23575e-005
       18365.4      -0.33328  5.33901e-005       0.66664 -2.86183e-005       0.66664 -2.86183e-005      -0.33332   1.2386e-005
       18450.2      -0.33328  5.35221e-005       0.66664 -2.86932e-005       0.66664 -2.86932e-005      -0.33332  1.24145e-005
       18535.3      -0.33328  5.36544e-005       0.66664 -2.87682e-005       0.66664 -2.87682e-005      -0.33332  1.24431e-005
       18620.9      -0.33328   5.3787e-005       0.66664 -2.88435e-005       0.66664 -2.88435e-005      -0.33332  1.24718e-005
       18706.8      -0.33328    5.392e-005       0.66664  -2.8919e-005       0.66664  -2.8919e-005      -0.33332  1.25006e-005
       18793.2      -0.33328  5.40533e-005       0.66664 -2.89947e-005       0.66664 -2.89947e-005      -0.33332  1.25294e-005
       18879.9      -0.33328   5.4187e-005       0.66664 -2.90707e-005       0.66664 -2.90707e-005      -0.33332  1.25582e-005
       18967.1     -0.333279  5.43211e-005       0.66664 -2.91468e-005       0.66664 -2.91468e-005      -0.33332  1.25872e-005
       19054.6     -0.333279  5.44555e-005       0.66664 -2.92232e-005       0.66664 -2.92232e-005      -0.33332  1.26162e-005
       19142.6     -0.333279  5.45902e-005       0.66664 -2.92997e-005       0.66664 -2.92997e-005      -0.33332  1.26453e-005
       19230.9     -0.333279  5.47253e-005      0.666639 -2.93765e-005      0.666639 -2.93765e-005      -0.33332  1.26744e-005
       19319.7     -0.333279  5.48607e-005      0.666639 -2.94536e-005      0.666639 -2.94536e-005      -0.33332  1.27037e-005
       19408.9     -0.333279  5.49965e-005      0.666639 -2.95308e-005      0.666639 -2.95308e-005      -0.33332  1.27329e-005
       19498.4     -0.333279  5.51327e-005      0.666639 -2.96083e-005      0.666639 -2.96083e-005      -0.33332  1.27623e-005
       19588.4     -0.333279  5.52692e-005      0.666639  -2.9686e-005      0.666639  -2.9686e-005      -0.33332  1.27917e-005
       19678.9     -0.333279  5.54061e-005      0.666639 -2.97639e-005      0.666639 -2.97639e-005      -0.33332  1.28212e-005
       19769.7     -0.333278  5.55433e-005      0.666639  -2.9842e-005      0.666639  -2.9842e-005      -0.33332  1.28507e-005
       19860.9     -0.333278  5.56809e-005      0.666639 -2.99203e-005      0.666639 -2.99203e-005      -0.33332  1.28804e-005
       19952.6     -0.333278  5.58189e-005      0.666639 -2.99989e-005      0.666639 -2.99989e-005      -0.33332  1.29101e-005
       20044.7     -0.333278  5.59572e-005      0.666639 -3.00777e-005      0.666639 -3.00777e-005      -0.33332  1.29398e-005
       20137.2     -0.333278  5.60959e-005      0.666639 -3.01568e-005      0.666639 -3.01568e-005      -0.33332  1.29696e-005
       20230.2     -0.333278  5.62349e-005      0.666639  -3.0236e-005      0.666639  -3.0236e-005     -0.333319  1.29995e-005
       20323.6     -0.333278  5.63744e-005      0.666639 -3.03155e-005      0.666639 -3.03155e-005     -0.333319  1.30295e-005
