! NPort=2 DATA=4501 NOISE=0 GROUPDELAY=0 COMPLEX_DATAFORMAT=RI
! NumOfBlock=1 NumOfParam=0
!
! .MODEL Smodel S TSTONEFILE=./link_rx/link_rx_l3/lr10000_10000000000000dec_4_5.s2p TYPE=S
!   -- The above .MODEL line can be used for the S element in the netlist.
!
!
# Hz S RI R             50
         10000     -0.332939   0.000386742      0.666469  -0.000204049      0.666469  -0.000204049     -0.333235  9.13492e-005
       10046.2     -0.332938   0.000387683      0.666469  -0.000204568      0.666469  -0.000204568     -0.333235  9.15597e-005
       10092.5     -0.332937   0.000388625      0.666468  -0.000205089      0.666468  -0.000205089     -0.333234  9.17706e-005
       10139.1     -0.332936    0.00038957      0.666468  -0.000205611      0.666468  -0.000205611     -0.333234  9.19821e-005
       10185.9     -0.332935   0.000390518      0.666467  -0.000206135      0.666467  -0.000206135     -0.333234   9.2194e-005
       10232.9     -0.332935   0.000391468      0.666467   -0.00020666      0.666467   -0.00020666     -0.333234  9.24064e-005
       10280.2     -0.332934    0.00039242      0.666467  -0.000207187      0.666467  -0.000207187     -0.333234  9.26192e-005
       10327.6     -0.332933   0.000393375      0.666466  -0.000207715      0.666466  -0.000207715     -0.333233  9.28326e-005
       10375.3     -0.332932   0.000394332      0.666466  -0.000208244      0.666466  -0.000208244     -0.333233  9.30465e-005
       10423.2     -0.332931   0.000395292      0.666465  -0.000208775      0.666465  -0.000208775     -0.333233  9.32608e-005
       10471.3      -0.33293   0.000396254      0.666465  -0.000209308      0.666465  -0.000209308     -0.333233  9.34757e-005
       10519.6     -0.332929   0.000397218      0.666464  -0.000209842      0.666464  -0.000209842     -0.333232   9.3691e-005
       10568.2     -0.332929   0.000398185      0.666464  -0.000210377      0.666464  -0.000210377     -0.333232  9.39069e-005
         10617     -0.332928   0.000399155      0.666464  -0.000210914      0.666464  -0.000210914     -0.333232  9.41232e-005
         10666     -0.332927   0.000400127      0.666463  -0.000211452      0.666463  -0.000211452     -0.333232  9.43401e-005
       10715.2     -0.332926   0.000401101      0.666463  -0.000211992      0.666463  -0.000211992     -0.333232  9.45574e-005
       10764.7     -0.332925   0.000402078      0.666462  -0.000212533      0.666462  -0.000212533     -0.333231  9.47752e-005
       10814.3     -0.332924   0.000403057      0.666462  -0.000213076      0.666462  -0.000213076     -0.333231  9.49936e-005
       10864.3     -0.332923   0.000404039      0.666461   -0.00021362      0.666461   -0.00021362     -0.333231  9.52124e-005
       10914.4     -0.332922   0.000405024      0.666461  -0.000214166      0.666461  -0.000214166     -0.333231  9.54318e-005
       10964.8     -0.332922   0.000406011      0.666461  -0.000214713      0.666461  -0.000214713     -0.333231  9.56516e-005
       11015.4     -0.332921      0.000407       0.66646  -0.000215262       0.66646  -0.000215262      -0.33323   9.5872e-005
       11066.2      -0.33292   0.000407992       0.66646  -0.000215812       0.66646  -0.000215812      -0.33323  9.60928e-005
       11117.3     -0.332919   0.000408987      0.666459  -0.000216364      0.666459  -0.000216364      -0.33323  9.63142e-005
       11168.6     -0.332918   0.000409984      0.666459  -0.000216917      0.666459  -0.000216917      -0.33323  9.65361e-005
       11220.2     -0.332917   0.000410983      0.666458  -0.000217472      0.666458  -0.000217472     -0.333229  9.67585e-005
         11272     -0.332916   0.000411985      0.666458  -0.000218029      0.666458  -0.000218029     -0.333229  9.69814e-005
         11324     -0.332915    0.00041299      0.666457  -0.000218586      0.666457  -0.000218586     -0.333229  9.72048e-005
       11376.3     -0.332914   0.000413997      0.666457  -0.000219146      0.666457  -0.000219146     -0.333229  9.74287e-005
       11428.8     -0.332914   0.000415007      0.666456  -0.000219707      0.666456  -0.000219707     -0.333229  9.76532e-005
       11481.5     -0.332913    0.00041602      0.666456  -0.000220269      0.666456  -0.000220269     -0.333228  9.78781e-005
       11534.5     -0.332912   0.000417035      0.666456  -0.000220834      0.666456  -0.000220834     -0.333228  9.81036e-005
       11587.8     -0.332911   0.000418052      0.666455  -0.000221399      0.666455  -0.000221399     -0.333228  9.83296e-005
       11641.3      -0.33291   0.000419073      0.666455  -0.000221966      0.666455  -0.000221966     -0.333228  9.85561e-005
         11695     -0.332909   0.000420095      0.666454  -0.000222535      0.666454  -0.000222535     -0.333227  9.87832e-005
         11749     -0.332908   0.000421121      0.666454  -0.000223106      0.666454  -0.000223106     -0.333227  9.90108e-005
       11803.2     -0.332907   0.000422149      0.666453  -0.000223678      0.666453  -0.000223678     -0.333227  9.92388e-005
       11857.7     -0.332906    0.00042318      0.666453  -0.000224251      0.666453  -0.000224251     -0.333227  9.94675e-005
       11912.4     -0.332905   0.000424213      0.666452  -0.000224826      0.666452  -0.000224826     -0.333226  9.96966e-005
       11967.4     -0.332904   0.000425249      0.666452  -0.000225403      0.666452  -0.000225403     -0.333226  9.99263e-005
       12022.6     -0.332904   0.000426288      0.666451  -0.000225981      0.666451  -0.000225981     -0.333226   0.000100156
       12078.1     -0.332903   0.000427329      0.666451  -0.000226561      0.666451  -0.000226561     -0.333226   0.000100387
       12133.9     -0.332902   0.000428373      0.666451  -0.000227143      0.666451  -0.000227143     -0.333226   0.000100618
       12189.9     -0.332901    0.00042942       0.66645  -0.000227726       0.66645  -0.000227726     -0.333225    0.00010085
       12246.2       -0.3329   0.000430469       0.66645  -0.000228311       0.66645  -0.000228311     -0.333225   0.000101083
       12302.7     -0.332899   0.000431521      0.666449  -0.000228897      0.666449  -0.000228897     -0.333225   0.000101315
       12359.5     -0.332898   0.000432576      0.666449  -0.000229485      0.666449  -0.000229485     -0.333225   0.000101549
       12416.5     -0.332897   0.000433633      0.666448  -0.000230075      0.666448  -0.000230075     -0.333224   0.000101783
       12473.8     -0.332896   0.000434694      0.666448  -0.000230666      0.666448  -0.000230666     -0.333224   0.000102017
       12531.4     -0.332895   0.000435756      0.666447  -0.000231259      0.666447  -0.000231259     -0.333224   0.000102252
       12589.3     -0.332894   0.000436822      0.666447  -0.000231854      0.666447  -0.000231854     -0.333224   0.000102488
       12647.4     -0.332893   0.000437891      0.666446   -0.00023245      0.666446   -0.00023245     -0.333223   0.000102724
       12705.7     -0.332892   0.000438962      0.666446  -0.000233048      0.666446  -0.000233048     -0.333223    0.00010296
       12764.4     -0.332891   0.000440036      0.666445  -0.000233647      0.666445  -0.000233647     -0.333223   0.000103198
       12823.3      -0.33289   0.000441112      0.666445  -0.000234249      0.666445  -0.000234249     -0.333223   0.000103435
       12882.5     -0.332889   0.000442192      0.666444  -0.000234851      0.666444  -0.000234851     -0.333223   0.000103674
         12942     -0.332888   0.000443274      0.666444  -0.000235456      0.666444  -0.000235456     -0.333222   0.000103913
       13001.7     -0.332888   0.000444359      0.666443  -0.000236062      0.666443  -0.000236062     -0.333222   0.000104152
       13061.7     -0.332887   0.000445446      0.666443   -0.00023667      0.666443   -0.00023667     -0.333222   0.000104392
         13122     -0.332886   0.000446537      0.666442   -0.00023728      0.666442   -0.00023728     -0.333222   0.000104632
       13182.6     -0.332885    0.00044763      0.666442  -0.000237891      0.666442  -0.000237891     -0.333221   0.000104873
       13243.4     -0.332884   0.000448727      0.666442  -0.000238504      0.666442  -0.000238504     -0.333221   0.000105115
       13304.5     -0.332883   0.000449826      0.666441  -0.000239119      0.666441  -0.000239119     -0.333221   0.000105357
         13366     -0.332882   0.000450927      0.666441  -0.000239736      0.666441  -0.000239736     -0.333221     0.0001056
       13427.6     -0.332881   0.000452032       0.66644  -0.000240354       0.66644  -0.000240354      -0.33322   0.000105843
       13489.6      -0.33288    0.00045314       0.66644  -0.000240974       0.66644  -0.000240974      -0.33322   0.000106087
       13551.9     -0.332879    0.00045425      0.666439  -0.000241596      0.666439  -0.000241596      -0.33322   0.000106331
       13614.4     -0.332878   0.000455363      0.666439  -0.000242219      0.666439  -0.000242219      -0.33322   0.000106576
       13677.3     -0.332877   0.000456479      0.666438  -0.000242844      0.666438  -0.000242844     -0.333219   0.000106822
       13740.4     -0.332876   0.000457598      0.666438  -0.000243471      0.666438  -0.000243471     -0.333219   0.000107068
       13803.8     -0.332875    0.00045872      0.666437    -0.0002441      0.666437    -0.0002441     -0.333219   0.000107314
       13867.6     -0.332874   0.000459845      0.666437   -0.00024473      0.666437   -0.00024473     -0.333219   0.000107562
       13931.6     -0.332873   0.000460973      0.666436  -0.000245362      0.666436  -0.000245362     -0.333218   0.000107809
       13995.9     -0.332872   0.000462103      0.666436  -0.000245996      0.666436  -0.000245996     -0.333218   0.000108058
       14060.5     -0.332871   0.000463237      0.666435  -0.000246632      0.666435  -0.000246632     -0.333218   0.000108307
       14125.4      -0.33287   0.000464373      0.666435   -0.00024727      0.666435   -0.00024727     -0.333218   0.000108556
       14190.6     -0.332869   0.000465513      0.666434  -0.000247909      0.666434  -0.000247909     -0.333217   0.000108806
       14256.1     -0.332868   0.000466655      0.666434   -0.00024855      0.666434   -0.00024855     -0.333217   0.000109057
       14321.9     -0.332867     0.0004678      0.666433  -0.000249193      0.666433  -0.000249193     -0.333217   0.000109308
         14388     -0.332866   0.000468949      0.666433  -0.000249838      0.666433  -0.000249838     -0.333217    0.00010956
       14454.4     -0.332865     0.0004701      0.666432  -0.000250484      0.666432  -0.000250484     -0.333216   0.000109812
       14521.1     -0.332864   0.000471254      0.666432  -0.000251132      0.666432  -0.000251132     -0.333216   0.000110065
       14588.1     -0.332863   0.000472411      0.666431  -0.000251783      0.666431  -0.000251783     -0.333216   0.000110319
       14655.5     -0.332862   0.000473571      0.666431  -0.000252435      0.666431  -0.000252435     -0.333216   0.000110573
       14723.1     -0.332861   0.000474734       0.66643  -0.000253088       0.66643  -0.000253088     -0.333215   0.000110827
       14791.1      -0.33286   0.000475901       0.66643  -0.000253744       0.66643  -0.000253744     -0.333215   0.000111083
       14859.4     -0.332859    0.00047707      0.666429  -0.000254402      0.666429  -0.000254402     -0.333215   0.000111339
       14927.9     -0.332858   0.000478242      0.666429  -0.000255061      0.666429  -0.000255061     -0.333215   0.000111595
       14996.8     -0.332857   0.000479417      0.666428  -0.000255722      0.666428  -0.000255722     -0.333214   0.000111852
       15066.1     -0.332856   0.000480596      0.666427  -0.000256385      0.666427  -0.000256385     -0.333214    0.00011211
       15135.6     -0.332855   0.000481777      0.666427   -0.00025705      0.666427   -0.00025705     -0.333214   0.000112368
       15205.5     -0.332854   0.000482961      0.666426  -0.000257717      0.666426  -0.000257717     -0.333214   0.000112627
       15275.7     -0.332853   0.000484149      0.666426  -0.000258386      0.666426  -0.000258386     -0.333213   0.000112886
       15346.2     -0.332852   0.000485339      0.666425  -0.000259056      0.666425  -0.000259056     -0.333213   0.000113146
         15417      -0.33285   0.000486533      0.666425  -0.000259729      0.666425  -0.000259729     -0.333213   0.000113407
       15488.2     -0.332849    0.00048773      0.666424  -0.000260403      0.666424  -0.000260403     -0.333213   0.000113668
       15559.7     -0.332848    0.00048893      0.666424  -0.000261079      0.666424  -0.000261079     -0.333212    0.00011393
       15631.5     -0.332847   0.000490133      0.666423  -0.000261758      0.666423  -0.000261758     -0.333212   0.000114192
       15703.6     -0.332846   0.000491339      0.666423  -0.000262438      0.666423  -0.000262438     -0.333212   0.000114455
       15776.1     -0.332845   0.000492548      0.666422   -0.00026312      0.666422   -0.00026312     -0.333211   0.000114719
       15848.9     -0.332844    0.00049376      0.666422  -0.000263804      0.666422  -0.000263804     -0.333211   0.000114983
       15922.1     -0.332843   0.000494976      0.666421  -0.000264489      0.666421  -0.000264489     -0.333211   0.000115248
       15995.6     -0.332842   0.000496195      0.666421  -0.000265177      0.666421  -0.000265177     -0.333211   0.000115514
       16069.4     -0.332841   0.000497416       0.66642  -0.000265867       0.66642  -0.000265867      -0.33321    0.00011578
       16143.6      -0.33284   0.000498641       0.66642  -0.000266559       0.66642  -0.000266559      -0.33321   0.000116046
       16218.1     -0.332839    0.00049987      0.666419  -0.000267252      0.666419  -0.000267252      -0.33321   0.000116314
         16293     -0.332838   0.000501101      0.666419  -0.000267948      0.666419  -0.000267948      -0.33321   0.000116582
       16368.2     -0.332837   0.000502336      0.666418  -0.000268646      0.666418  -0.000268646     -0.333209    0.00011685
       16443.7     -0.332836   0.000503573      0.666417  -0.000269345      0.666417  -0.000269345     -0.333209   0.000117119
       16519.6     -0.332835   0.000504814      0.666417  -0.000270047      0.666417  -0.000270047     -0.333209   0.000117389
       16595.9     -0.332833   0.000506059      0.666416   -0.00027075      0.666416   -0.00027075     -0.333209   0.000117659
       16672.5     -0.332832   0.000507306      0.666416  -0.000271456      0.666416  -0.000271456     -0.333208    0.00011793
       16749.4     -0.332831   0.000508557      0.666415  -0.000272164      0.666415  -0.000272164     -0.333208   0.000118202
       16826.7      -0.33283   0.000509811      0.666415  -0.000272873      0.666415  -0.000272873     -0.333208   0.000118474
       16904.4     -0.332829   0.000511068      0.666414  -0.000273585      0.666414  -0.000273585     -0.333207   0.000118747
       16982.4     -0.332828   0.000512329      0.666414  -0.000274298      0.666414  -0.000274298     -0.333207   0.000119021
       17060.8     -0.332827   0.000513593      0.666413  -0.000275014      0.666413  -0.000275014     -0.333207   0.000119295
       17139.6     -0.332826    0.00051486      0.666413  -0.000275732      0.666413  -0.000275732     -0.333207    0.00011957
       17218.7     -0.332825    0.00051613      0.666412  -0.000276451      0.666412  -0.000276451     -0.333206   0.000119845
       17298.2     -0.332824   0.000517404      0.666411  -0.000277173      0.666411  -0.000277173     -0.333206   0.000120121
         17378     -0.332822   0.000518681      0.666411  -0.000277897      0.666411  -0.000277897     -0.333206   0.000120398
       17458.2     -0.332821   0.000519961       0.66641  -0.000278623       0.66641  -0.000278623     -0.333206   0.000120675
       17538.8      -0.33282   0.000521245       0.66641  -0.000279351       0.66641  -0.000279351     -0.333205   0.000120953
       17619.8     -0.332819   0.000522532      0.666409  -0.000280081      0.666409  -0.000280081     -0.333205   0.000121232
       17701.1     -0.332818   0.000523823      0.666409  -0.000280813      0.666409  -0.000280813     -0.333205   0.000121511
       17782.8     -0.332817   0.000525117      0.666408  -0.000281547      0.666408  -0.000281547     -0.333204   0.000121791
       17864.9     -0.332816   0.000526414      0.666407  -0.000282283      0.666407  -0.000282283     -0.333204   0.000122071
       17947.3     -0.332815   0.000527714      0.666407  -0.000283022      0.666407  -0.000283022     -0.333204   0.000122352
       18030.2     -0.332814   0.000529018      0.666406  -0.000283762      0.666406  -0.000283762     -0.333204   0.000122634
       18113.4     -0.332812   0.000530326      0.666406  -0.000284505      0.666406  -0.000284505     -0.333203   0.000122917
         18197     -0.332811   0.000531637      0.666405  -0.000285249      0.666405  -0.000285249     -0.333203     0.0001232
         18281      -0.33281   0.000532951      0.666405  -0.000285996      0.666405  -0.000285996     -0.333203   0.000123483
       18365.4     -0.332809   0.000534269      0.666404  -0.000286745      0.666404  -0.000286745     -0.333202   0.000123768
       18450.2     -0.332808    0.00053559      0.666404  -0.000287496      0.666404  -0.000287496     -0.333202   0.000124053
       18535.3     -0.332807   0.000536914      0.666403  -0.000288249      0.666403  -0.000288249     -0.333202   0.000124339
       18620.9     -0.332806   0.000538243      0.666402  -0.000289005      0.666402  -0.000289005     -0.333202   0.000124625
       18706.8     -0.332804   0.000539574      0.666402  -0.000289762      0.666402  -0.000289762     -0.333201   0.000124912
       18793.2     -0.332803   0.000540909      0.666401  -0.000290522      0.666401  -0.000290522     -0.333201     0.0001252
       18879.9     -0.332802   0.000542248      0.666401  -0.000291284      0.666401  -0.000291284     -0.333201   0.000125488
       18967.1     -0.332801    0.00054359        0.6664  -0.000292048        0.6664  -0.000292048       -0.3332   0.000125777
       19054.6       -0.3328   0.000544935      0.666399  -0.000292814      0.666399  -0.000292814       -0.3332   0.000126067
       19142.6     -0.332799   0.000546284      0.666399  -0.000293583      0.666399  -0.000293583       -0.3332   0.000126357
       19230.9     -0.332797   0.000547637      0.666398  -0.000294354      0.666398  -0.000294354       -0.3332   0.000126648
       19319.7     -0.332796   0.000548993      0.666398  -0.000295127      0.666398  -0.000295127     -0.333199    0.00012694
       19408.9     -0.332795   0.000550353      0.666397  -0.000295902      0.666397  -0.000295902     -0.333199   0.000127232
       19498.4     -0.332794   0.000551716      0.666397  -0.000296679      0.666397  -0.000296679     -0.333199   0.000127525
       19588.4     -0.332793   0.000553083      0.666396  -0.000297459      0.666396  -0.000297459     -0.333198   0.000127819
       19678.9     -0.332792   0.000554454      0.666395   -0.00029824      0.666395   -0.00029824     -0.333198   0.000128113
       19769.7      -0.33279   0.000555828      0.666395  -0.000299024      0.666395  -0.000299024     -0.333198   0.000128408
       19860.9     -0.332789   0.000557205      0.666394  -0.000299811      0.666394  -0.000299811     -0.333198   0.000128704
       19952.6     -0.332788   0.000558587      0.666394  -0.000300599      0.666394  -0.000300599     -0.333197   0.000129001
       20044.7     -0.332787   0.000559972      0.666393   -0.00030139      0.666393   -0.00030139     -0.333197   0.000129298
       20137.2     -0.332786    0.00056136      0.666392  -0.000302183      0.666392  -0.000302183     -0.333197   0.000129596
       20230.2     -0.332784   0.000562753      0.666392  -0.000302979      0.666392  -0.000302979     -0.333196   0.000129894
       20323.6     -0.332783   0.000564148      0.666391  -0.000303776      0.666391  -0.000303776     -0.333196   0.000130193
