! NPort=2 DATA=4501 NOISE=0 GROUPDELAY=0 COMPLEX_DATAFORMAT=RI
! NumOfBlock=1 NumOfParam=0
!
! .MODEL Smodel S TSTONEFILE=./link_rx/link_rx_l3/lr10000_10000000000000dec_2_3.s2p TYPE=S
!   -- The above .MODEL line can be used for the S element in the netlist.
!
!
# Hz S RI R             50
         10000      -0.33305   0.000275973      0.666525  -0.000148664      0.666525  -0.000148664     -0.333263  6.36565e-005
       10046.2     -0.333049   0.000276658      0.666524  -0.000149055      0.666524  -0.000149055     -0.333262  6.38032e-005
       10092.5     -0.333049   0.000277345      0.666524  -0.000149449      0.666524  -0.000149449     -0.333262  6.39502e-005
       10139.1     -0.333048   0.000278034      0.666524  -0.000149843      0.666524  -0.000149843     -0.333262  6.40976e-005
       10185.9     -0.333047   0.000278725      0.666523  -0.000150238      0.666523  -0.000150238     -0.333262  6.42452e-005
       10232.9     -0.333047   0.000279417      0.666523  -0.000150634      0.666523  -0.000150634     -0.333262  6.43933e-005
       10280.2     -0.333046   0.000280111      0.666523  -0.000151032      0.666523  -0.000151032     -0.333262  6.45417e-005
       10327.6     -0.333046   0.000280808      0.666522  -0.000151431      0.666522  -0.000151431     -0.333262  6.46904e-005
       10375.3     -0.333045   0.000281505      0.666522  -0.000151831      0.666522  -0.000151831     -0.333261  6.48394e-005
       10423.2     -0.333044   0.000282205      0.666522  -0.000152232      0.666522  -0.000152232     -0.333261  6.49888e-005
       10471.3     -0.333044   0.000282907      0.666522  -0.000152634      0.666522  -0.000152634     -0.333261  6.51386e-005
       10519.6     -0.333043    0.00028361      0.666521  -0.000153037      0.666521  -0.000153037     -0.333261  6.52887e-005
       10568.2     -0.333043   0.000284316      0.666521  -0.000153442      0.666521  -0.000153442     -0.333261  6.54391e-005
         10617     -0.333042   0.000285023      0.666521  -0.000153848      0.666521  -0.000153848     -0.333261  6.55899e-005
         10666     -0.333041   0.000285732       0.66652  -0.000154254       0.66652  -0.000154254     -0.333261   6.5741e-005
       10715.2     -0.333041   0.000286443       0.66652  -0.000154662       0.66652  -0.000154662      -0.33326  6.58925e-005
       10764.7      -0.33304   0.000287156       0.66652  -0.000155072       0.66652  -0.000155072      -0.33326  6.60443e-005
       10814.3      -0.33304   0.000287871      0.666519  -0.000155482      0.666519  -0.000155482      -0.33326  6.61965e-005
       10864.3     -0.333039   0.000288587      0.666519  -0.000155894      0.666519  -0.000155894      -0.33326   6.6349e-005
       10914.4     -0.333038   0.000289306      0.666519  -0.000156307      0.666519  -0.000156307      -0.33326  6.65019e-005
       10964.8     -0.333038   0.000290026      0.666518  -0.000156721      0.666518  -0.000156721      -0.33326  6.66551e-005
       11015.4     -0.333037   0.000290749      0.666518  -0.000157136      0.666518  -0.000157136     -0.333259  6.68087e-005
       11066.2     -0.333036   0.000291473      0.666518  -0.000157552      0.666518  -0.000157552     -0.333259  6.69626e-005
       11117.3     -0.333036   0.000292199      0.666518   -0.00015797      0.666518   -0.00015797     -0.333259  6.71169e-005
       11168.6     -0.333035   0.000292927      0.666517  -0.000158389      0.666517  -0.000158389     -0.333259  6.72716e-005
       11220.2     -0.333035   0.000293657      0.666517  -0.000158809      0.666517  -0.000158809     -0.333259  6.74266e-005
         11272     -0.333034   0.000294389      0.666517   -0.00015923      0.666517   -0.00015923     -0.333259  6.75819e-005
         11324     -0.333033   0.000295123      0.666516  -0.000159653      0.666516  -0.000159653     -0.333259  6.77376e-005
       11376.3     -0.333033   0.000295859      0.666516  -0.000160076      0.666516  -0.000160076     -0.333258  6.78937e-005
       11428.8     -0.333032   0.000296597      0.666516  -0.000160501      0.666516  -0.000160501     -0.333258  6.80501e-005
       11481.5     -0.333032   0.000297337      0.666515  -0.000160927      0.666515  -0.000160927     -0.333258  6.82069e-005
       11534.5     -0.333031   0.000298078      0.666515  -0.000161355      0.666515  -0.000161355     -0.333258  6.83641e-005
       11587.8      -0.33303   0.000298822      0.666515  -0.000161784      0.666515  -0.000161784     -0.333258  6.85216e-005
       11641.3      -0.33303   0.000299568      0.666514  -0.000162214      0.666514  -0.000162214     -0.333258  6.86795e-005
         11695     -0.333029   0.000300316      0.666514  -0.000162645      0.666514  -0.000162645     -0.333257  6.88377e-005
         11749     -0.333028   0.000301065      0.666514  -0.000163077      0.666514  -0.000163077     -0.333257  6.89963e-005
       11803.2     -0.333028   0.000301817      0.666513  -0.000163511      0.666513  -0.000163511     -0.333257  6.91553e-005
       11857.7     -0.333027    0.00030257      0.666513  -0.000163946      0.666513  -0.000163946     -0.333257  6.93147e-005
       11912.4     -0.333026   0.000303326      0.666513  -0.000164382      0.666513  -0.000164382     -0.333257  6.94744e-005
       11967.4     -0.333026   0.000304084      0.666512   -0.00016482      0.666512   -0.00016482     -0.333257  6.96344e-005
       12022.6     -0.333025   0.000304843      0.666512  -0.000165259      0.666512  -0.000165259     -0.333256  6.97949e-005
       12078.1     -0.333025   0.000305605      0.666512  -0.000165699      0.666512  -0.000165699     -0.333256  6.99557e-005
       12133.9     -0.333024   0.000306369      0.666512   -0.00016614      0.666512   -0.00016614     -0.333256  7.01169e-005
       12189.9     -0.333023   0.000307135      0.666511  -0.000166583      0.666511  -0.000166583     -0.333256  7.02784e-005
       12246.2     -0.333023   0.000307902      0.666511  -0.000167027      0.666511  -0.000167027     -0.333256  7.04403e-005
       12302.7     -0.333022   0.000308672      0.666511  -0.000167472      0.666511  -0.000167472     -0.333256  7.06026e-005
       12359.5     -0.333021   0.000309444       0.66651  -0.000167919       0.66651  -0.000167919     -0.333256  7.07653e-005
       12416.5     -0.333021   0.000310218       0.66651  -0.000168367       0.66651  -0.000168367     -0.333255  7.09284e-005
       12473.8      -0.33302   0.000310994       0.66651  -0.000168816       0.66651  -0.000168816     -0.333255  7.10918e-005
       12531.4     -0.333019   0.000311772      0.666509  -0.000169266      0.666509  -0.000169266     -0.333255  7.12556e-005
       12589.3     -0.333019   0.000312552      0.666509  -0.000169718      0.666509  -0.000169718     -0.333255  7.14198e-005
       12647.4     -0.333018   0.000313335      0.666509  -0.000170171      0.666509  -0.000170171     -0.333255  7.15843e-005
       12705.7     -0.333017   0.000314119      0.666508  -0.000170626      0.666508  -0.000170626     -0.333255  7.17492e-005
       12764.4     -0.333017   0.000314905      0.666508  -0.000171082      0.666508  -0.000171082     -0.333254  7.19146e-005
       12823.3     -0.333016   0.000315694      0.666508  -0.000171539      0.666508  -0.000171539     -0.333254  7.20802e-005
       12882.5     -0.333015   0.000316484      0.666507  -0.000171997      0.666507  -0.000171997     -0.333254  7.22463e-005
         12942     -0.333015   0.000317277      0.666507  -0.000172457      0.666507  -0.000172457     -0.333254  7.24128e-005
       13001.7     -0.333014   0.000318072      0.666507  -0.000172918      0.666507  -0.000172918     -0.333254  7.25796e-005
       13061.7     -0.333013   0.000318869      0.666506  -0.000173381      0.666506  -0.000173381     -0.333254  7.27468e-005
         13122     -0.333013   0.000319668      0.666506  -0.000173845      0.666506  -0.000173845     -0.333253  7.29144e-005
       13182.6     -0.333012   0.000320469      0.666506   -0.00017431      0.666506   -0.00017431     -0.333253  7.30824e-005
       13243.4     -0.333011   0.000321273      0.666505  -0.000174777      0.666505  -0.000174777     -0.333253  7.32508e-005
       13304.5     -0.333011   0.000322078      0.666505  -0.000175245      0.666505  -0.000175245     -0.333253  7.34196e-005
         13366      -0.33301   0.000322886      0.666505  -0.000175714      0.666505  -0.000175714     -0.333253  7.35888e-005
       13427.6     -0.333009   0.000323696      0.666504  -0.000176185      0.666504  -0.000176185     -0.333253  7.37583e-005
       13489.6     -0.333009   0.000324508      0.666504  -0.000176657      0.666504  -0.000176657     -0.333252  7.39282e-005
       13551.9     -0.333008   0.000325322      0.666504  -0.000177131      0.666504  -0.000177131     -0.333252  7.40986e-005
       13614.4     -0.333007   0.000326139      0.666503  -0.000177606      0.666503  -0.000177606     -0.333252  7.42693e-005
       13677.3     -0.333007   0.000326957      0.666503  -0.000178082      0.666503  -0.000178082     -0.333252  7.44404e-005
       13740.4     -0.333006   0.000327778      0.666502   -0.00017856      0.666502   -0.00017856     -0.333252  7.46119e-005
       13803.8     -0.333005   0.000328601      0.666502  -0.000179039      0.666502  -0.000179039     -0.333252  7.47838e-005
       13867.6     -0.333005   0.000329426      0.666502   -0.00017952      0.666502   -0.00017952     -0.333251  7.49561e-005
       13931.6     -0.333004   0.000330253      0.666501  -0.000180002      0.666501  -0.000180002     -0.333251  7.51288e-005
       13995.9     -0.333003   0.000331083      0.666501  -0.000180485      0.666501  -0.000180485     -0.333251  7.53019e-005
       14060.5     -0.333002   0.000331915      0.666501   -0.00018097      0.666501   -0.00018097     -0.333251  7.54754e-005
       14125.4     -0.333002   0.000332749        0.6665  -0.000181457        0.6665  -0.000181457     -0.333251  7.56493e-005
       14190.6     -0.333001   0.000333585        0.6665  -0.000181945        0.6665  -0.000181945     -0.333251  7.58236e-005
       14256.1        -0.333   0.000334424        0.6665  -0.000182434        0.6665  -0.000182434      -0.33325  7.59983e-005
       14321.9        -0.333   0.000335265      0.666499  -0.000182924      0.666499  -0.000182924      -0.33325  7.61734e-005
         14388     -0.332999   0.000336108      0.666499  -0.000183417      0.666499  -0.000183417      -0.33325  7.63489e-005
       14454.4     -0.332998   0.000336953      0.666499   -0.00018391      0.666499   -0.00018391      -0.33325  7.65248e-005
       14521.1     -0.332998   0.000337801      0.666498  -0.000184405      0.666498  -0.000184405      -0.33325  7.67011e-005
       14588.1     -0.332997   0.000338651      0.666498  -0.000184902      0.666498  -0.000184902     -0.333249  7.68778e-005
       14655.5     -0.332996   0.000339503      0.666498    -0.0001854      0.666498    -0.0001854     -0.333249  7.70549e-005
       14723.1     -0.332995   0.000340357      0.666497  -0.000185899      0.666497  -0.000185899     -0.333249  7.72324e-005
       14791.1     -0.332995   0.000341214      0.666497    -0.0001864      0.666497    -0.0001864     -0.333249  7.74104e-005
       14859.4     -0.332994   0.000342073      0.666497  -0.000186903      0.666497  -0.000186903     -0.333249  7.75887e-005
       14927.9     -0.332993   0.000342935      0.666496  -0.000187407      0.666496  -0.000187407     -0.333249  7.77675e-005
       14996.8     -0.332993   0.000343798      0.666496  -0.000187912      0.666496  -0.000187912     -0.333248  7.79466e-005
       15066.1     -0.332992   0.000344665      0.666495  -0.000188419      0.666495  -0.000188419     -0.333248  7.81262e-005
       15135.6     -0.332991   0.000345533      0.666495  -0.000188927      0.666495  -0.000188927     -0.333248  7.83062e-005
       15205.5      -0.33299   0.000346404      0.666495  -0.000189437      0.666495  -0.000189437     -0.333248  7.84866e-005
       15275.7      -0.33299   0.000347277      0.666494  -0.000189949      0.666494  -0.000189949     -0.333248  7.86675e-005
       15346.2     -0.332989   0.000348152      0.666494  -0.000190462      0.666494  -0.000190462     -0.333248  7.88487e-005
         15417     -0.332988    0.00034903      0.666494  -0.000190976      0.666494  -0.000190976     -0.333247  7.90304e-005
       15488.2     -0.332988    0.00034991      0.666493  -0.000191493      0.666493  -0.000191493     -0.333247  7.92124e-005
       15559.7     -0.332987   0.000350793      0.666493   -0.00019201      0.666493   -0.00019201     -0.333247  7.93949e-005
       15631.5     -0.332986   0.000351678      0.666493  -0.000192529      0.666493  -0.000192529     -0.333247  7.95778e-005
       15703.6     -0.332985   0.000352565      0.666492   -0.00019305      0.666492   -0.00019305     -0.333247  7.97612e-005
       15776.1     -0.332985   0.000353455      0.666492  -0.000193572      0.666492  -0.000193572     -0.333246  7.99449e-005
       15848.9     -0.332984   0.000354347      0.666491  -0.000194096      0.666491  -0.000194096     -0.333246  8.01291e-005
       15922.1     -0.332983   0.000355241      0.666491  -0.000194622      0.666491  -0.000194622     -0.333246  8.03137e-005
       15995.6     -0.332982   0.000356138      0.666491  -0.000195148      0.666491  -0.000195148     -0.333246  8.04988e-005
       16069.4     -0.332982   0.000357038       0.66649  -0.000195677       0.66649  -0.000195677     -0.333246  8.06842e-005
       16143.6     -0.332981    0.00035794       0.66649  -0.000196207       0.66649  -0.000196207     -0.333245  8.08701e-005
       16218.1      -0.33298   0.000358844       0.66649  -0.000196739       0.66649  -0.000196739     -0.333245  8.10564e-005
         16293     -0.332979   0.000359751      0.666489  -0.000197272      0.666489  -0.000197272     -0.333245  8.12431e-005
       16368.2     -0.332979    0.00036066      0.666489  -0.000197807      0.666489  -0.000197807     -0.333245  8.14303e-005
       16443.7     -0.332978   0.000361572      0.666488  -0.000198344      0.666488  -0.000198344     -0.333245  8.16179e-005
       16519.6     -0.332977   0.000362486      0.666488  -0.000198882      0.666488  -0.000198882     -0.333245   8.1806e-005
       16595.9     -0.332976   0.000363402      0.666488  -0.000199421      0.666488  -0.000199421     -0.333244  8.19944e-005
       16672.5     -0.332976   0.000364321      0.666487  -0.000199963      0.666487  -0.000199963     -0.333244  8.21833e-005
       16749.4     -0.332975   0.000365243      0.666487  -0.000200506      0.666487  -0.000200506     -0.333244  8.23727e-005
       16826.7     -0.332974   0.000366167      0.666487   -0.00020105      0.666487   -0.00020105     -0.333244  8.25624e-005
       16904.4     -0.332973   0.000367094      0.666486  -0.000201597      0.666486  -0.000201597     -0.333244  8.27526e-005
       16982.4     -0.332973   0.000368023      0.666486  -0.000202144      0.666486  -0.000202144     -0.333243  8.29433e-005
       17060.8     -0.332972   0.000368954      0.666485  -0.000202694      0.666485  -0.000202694     -0.333243  8.31344e-005
       17139.6     -0.332971   0.000369889      0.666485  -0.000203245      0.666485  -0.000203245     -0.333243  8.33259e-005
       17218.7      -0.33297   0.000370825      0.666485  -0.000203798      0.666485  -0.000203798     -0.333243  8.35179e-005
       17298.2      -0.33297   0.000371765      0.666484  -0.000204352      0.666484  -0.000204352     -0.333243  8.37103e-005
         17378     -0.332969   0.000372706      0.666484  -0.000204909      0.666484  -0.000204909     -0.333242  8.39031e-005
       17458.2     -0.332968   0.000373651      0.666483  -0.000205466      0.666483  -0.000205466     -0.333242  8.40964e-005
       17538.8     -0.332967   0.000374598      0.666483  -0.000206026      0.666483  -0.000206026     -0.333242  8.42901e-005
       17619.8     -0.332966   0.000375547      0.666483  -0.000206587      0.666483  -0.000206587     -0.333242  8.44843e-005
       17701.1     -0.332966   0.000376499      0.666482   -0.00020715      0.666482   -0.00020715     -0.333242   8.4679e-005
       17782.8     -0.332965   0.000377454      0.666482  -0.000207715      0.666482  -0.000207715     -0.333242   8.4874e-005
       17864.9     -0.332964   0.000378411      0.666481  -0.000208281      0.666481  -0.000208281     -0.333241  8.50696e-005
       17947.3     -0.332963   0.000379371      0.666481  -0.000208849      0.666481  -0.000208849     -0.333241  8.52655e-005
       18030.2     -0.332963   0.000380334      0.666481  -0.000209419      0.666481  -0.000209419     -0.333241   8.5462e-005
       18113.4     -0.332962   0.000381299       0.66648   -0.00020999       0.66648   -0.00020999     -0.333241  8.56589e-005
         18197     -0.332961   0.000382267       0.66648  -0.000210563       0.66648  -0.000210563     -0.333241  8.58562e-005
         18281      -0.33296   0.000383237      0.666479  -0.000211138      0.666479  -0.000211138      -0.33324   8.6054e-005
       18365.4     -0.332959    0.00038421      0.666479  -0.000211715      0.666479  -0.000211715      -0.33324  8.62522e-005
       18450.2     -0.332959   0.000385186      0.666479  -0.000212293      0.666479  -0.000212293      -0.33324  8.64509e-005
       18535.3     -0.332958   0.000386164      0.666478  -0.000212873      0.666478  -0.000212873      -0.33324  8.66501e-005
       18620.9     -0.332957   0.000387145      0.666478  -0.000213455      0.666478  -0.000213455      -0.33324  8.68497e-005
       18706.8     -0.332956   0.000388129      0.666477  -0.000214039      0.666477  -0.000214039     -0.333239  8.70498e-005
       18793.2     -0.332955   0.000389115      0.666477  -0.000214624      0.666477  -0.000214624     -0.333239  8.72503e-005
       18879.9     -0.332955   0.000390105      0.666477  -0.000215211      0.666477  -0.000215211     -0.333239  8.74513e-005
       18967.1     -0.332954   0.000391096      0.666476    -0.0002158      0.666476    -0.0002158     -0.333239  8.76528e-005
       19054.6     -0.332953   0.000392091      0.666476  -0.000216391      0.666476  -0.000216391     -0.333239  8.78547e-005
       19142.6     -0.332952   0.000393088      0.666475  -0.000216984      0.666475  -0.000216984     -0.333238  8.80571e-005
       19230.9     -0.332951   0.000394088      0.666475  -0.000217578      0.666475  -0.000217578     -0.333238    8.826e-005
       19319.7     -0.332951   0.000395091      0.666475  -0.000218174      0.666475  -0.000218174     -0.333238  8.84633e-005
       19408.9      -0.33295   0.000396096      0.666474  -0.000218772      0.666474  -0.000218772     -0.333238  8.86671e-005
       19498.4     -0.332949   0.000397105      0.666474  -0.000219372      0.666474  -0.000219372     -0.333238  8.88713e-005
       19588.4     -0.332948   0.000398116      0.666473  -0.000219974      0.666473  -0.000219974     -0.333237  8.90761e-005
       19678.9     -0.332947   0.000399129      0.666473  -0.000220577      0.666473  -0.000220577     -0.333237  8.92813e-005
       19769.7     -0.332946   0.000400146      0.666473  -0.000221182      0.666473  -0.000221182     -0.333237  8.94869e-005
       19860.9     -0.332946   0.000401165      0.666472  -0.000221789      0.666472  -0.000221789     -0.333237  8.96931e-005
       19952.6     -0.332945   0.000402187      0.666472  -0.000222398      0.666472  -0.000222398     -0.333237  8.98997e-005
       20044.7     -0.332944   0.000403212      0.666471  -0.000223009      0.666471  -0.000223009     -0.333236  9.01068e-005
       20137.2     -0.332943    0.00040424      0.666471  -0.000223622      0.666471  -0.000223622     -0.333236  9.03144e-005
       20230.2     -0.332942   0.000405271       0.66647  -0.000224236       0.66647  -0.000224236     -0.333236  9.05224e-005
       20323.6     -0.332941   0.000406304       0.66647  -0.000224853       0.66647  -0.000224853     -0.333236   9.0731e-005
