! NPort=2 DATA=4501 NOISE=0 GROUPDELAY=0 COMPLEX_DATAFORMAT=RI
! NumOfBlock=1 NumOfParam=0
!
! .MODEL Smodel S TSTONEFILE=./link_rx/link_rx_l3/lr10000_10000000000000dec_4_3.s2p TYPE=S
!   -- The above .MODEL line can be used for the S element in the netlist.
!
!
# Hz S RI R             50
         10000   0.000221685   0.000205565 -1.85491e-005 -3.04879e-005 -1.85491e-005 -3.04879e-005     -0.999361   0.000636415
       10046.2   0.000222157   0.000206039 -1.85919e-005 -3.05858e-005 -1.85919e-005 -3.05858e-005      -0.99936   0.000638029
       10092.5   0.000222631   0.000206514 -1.86349e-005  -3.0684e-005 -1.86349e-005  -3.0684e-005     -0.999359   0.000639646
       10139.1   0.000223106    0.00020699 -1.86779e-005 -3.07826e-005 -1.86779e-005 -3.07826e-005     -0.999357   0.000641268
       10185.9   0.000223582   0.000207467  -1.8721e-005 -3.08815e-005  -1.8721e-005 -3.08815e-005     -0.999356   0.000642895
       10232.9   0.000224059   0.000207945 -1.87642e-005 -3.09808e-005 -1.87642e-005 -3.09808e-005     -0.999355   0.000644526
       10280.2   0.000224538   0.000208424 -1.88075e-005 -3.10804e-005 -1.88075e-005 -3.10804e-005     -0.999353   0.000646161
       10327.6   0.000225017   0.000208904  -1.8851e-005 -3.11804e-005  -1.8851e-005 -3.11804e-005     -0.999352   0.000647801
       10375.3   0.000225497   0.000209385 -1.88945e-005 -3.12808e-005 -1.88945e-005 -3.12808e-005     -0.999351   0.000649445
       10423.2   0.000225979   0.000209868 -1.89381e-005 -3.13815e-005 -1.89381e-005 -3.13815e-005     -0.999349   0.000651094
       10471.3   0.000226461   0.000210351 -1.89818e-005 -3.14826e-005 -1.89818e-005 -3.14826e-005     -0.999348   0.000652747
       10519.6   0.000226945   0.000210836 -1.90256e-005 -3.15841e-005 -1.90256e-005 -3.15841e-005     -0.999347   0.000654405
       10568.2    0.00022743   0.000211322 -1.90696e-005 -3.16859e-005 -1.90696e-005 -3.16859e-005     -0.999345   0.000656067
         10617   0.000227916   0.000211809 -1.91136e-005 -3.17881e-005 -1.91136e-005 -3.17881e-005     -0.999344   0.000657734
         10666   0.000228403   0.000212297 -1.91577e-005 -3.18907e-005 -1.91577e-005 -3.18907e-005     -0.999343   0.000659405
       10715.2   0.000228891   0.000212786  -1.9202e-005 -3.19936e-005  -1.9202e-005 -3.19936e-005     -0.999341   0.000661081
       10764.7    0.00022938   0.000213276 -1.92463e-005 -3.20969e-005 -1.92463e-005 -3.20969e-005      -0.99934   0.000662761
       10814.3   0.000229871   0.000213768 -1.92907e-005 -3.22006e-005 -1.92907e-005 -3.22006e-005     -0.999338   0.000664446
       10864.3   0.000230362    0.00021426 -1.93353e-005 -3.23047e-005 -1.93353e-005 -3.23047e-005     -0.999337   0.000666136
       10914.4   0.000230855   0.000214754 -1.93799e-005 -3.24091e-005 -1.93799e-005 -3.24091e-005     -0.999336   0.000667831
       10964.8   0.000231349   0.000215249 -1.94247e-005 -3.25139e-005 -1.94247e-005 -3.25139e-005     -0.999334   0.000669529
       11015.4   0.000231844   0.000215744 -1.94695e-005 -3.26191e-005 -1.94695e-005 -3.26191e-005     -0.999333   0.000671233
       11066.2    0.00023234   0.000216242 -1.95145e-005 -3.27247e-005 -1.95145e-005 -3.27247e-005     -0.999332   0.000672941
       11117.3   0.000232837    0.00021674 -1.95595e-005 -3.28307e-005 -1.95595e-005 -3.28307e-005      -0.99933   0.000674654
       11168.6   0.000233336   0.000217239 -1.96047e-005  -3.2937e-005 -1.96047e-005  -3.2937e-005     -0.999329   0.000676372
       11220.2   0.000233835    0.00021774 -1.96499e-005 -3.30438e-005 -1.96499e-005 -3.30438e-005     -0.999327   0.000678094
         11272   0.000234336   0.000218241 -1.96953e-005 -3.31509e-005 -1.96953e-005 -3.31509e-005     -0.999326   0.000679821
         11324   0.000234838   0.000218744 -1.97408e-005 -3.32584e-005 -1.97408e-005 -3.32584e-005     -0.999325   0.000681553
       11376.3    0.00023534   0.000219248 -1.97864e-005 -3.33663e-005 -1.97864e-005 -3.33663e-005     -0.999323    0.00068329
       11428.8   0.000235845   0.000219753 -1.98321e-005 -3.34746e-005 -1.98321e-005 -3.34746e-005     -0.999322   0.000685031
       11481.5    0.00023635    0.00022026 -1.98779e-005 -3.35833e-005 -1.98779e-005 -3.35833e-005      -0.99932   0.000686777
       11534.5   0.000236856   0.000220767 -1.99238e-005 -3.36924e-005 -1.99238e-005 -3.36924e-005     -0.999319   0.000688528
       11587.8   0.000237364   0.000221276 -1.99698e-005 -3.38019e-005 -1.99698e-005 -3.38019e-005     -0.999317   0.000690284
       11641.3   0.000237873   0.000221786 -2.00159e-005 -3.39118e-005 -2.00159e-005 -3.39118e-005     -0.999316   0.000692045
         11695   0.000238383   0.000222297 -2.00621e-005  -3.4022e-005 -2.00621e-005  -3.4022e-005     -0.999315    0.00069381
         11749   0.000238894   0.000222809 -2.01084e-005 -3.41327e-005 -2.01084e-005 -3.41327e-005     -0.999313    0.00069558
       11803.2   0.000239406   0.000223322 -2.01549e-005 -3.42438e-005 -2.01549e-005 -3.42438e-005     -0.999312   0.000697355
       11857.7    0.00023992   0.000223837 -2.02014e-005 -3.43553e-005 -2.02014e-005 -3.43553e-005      -0.99931   0.000699135
       11912.4   0.000240434   0.000224352 -2.02481e-005 -3.44672e-005 -2.02481e-005 -3.44672e-005     -0.999309    0.00070092
       11967.4    0.00024095   0.000224869 -2.02948e-005 -3.45795e-005 -2.02948e-005 -3.45795e-005     -0.999307    0.00070271
       12022.6   0.000241467   0.000225387 -2.03417e-005 -3.46923e-005 -2.03417e-005 -3.46923e-005     -0.999306   0.000704505
       12078.1   0.000241985   0.000225907 -2.03887e-005 -3.48054e-005 -2.03887e-005 -3.48054e-005     -0.999305   0.000706304
       12133.9   0.000242505   0.000226427 -2.04357e-005 -3.49189e-005 -2.04357e-005 -3.49189e-005     -0.999303   0.000708109
       12189.9   0.000243025   0.000226949 -2.04829e-005 -3.50329e-005 -2.04829e-005 -3.50329e-005     -0.999302   0.000709919
       12246.2   0.000243547   0.000227472 -2.05302e-005 -3.51473e-005 -2.05302e-005 -3.51473e-005       -0.9993   0.000711733
       12302.7    0.00024407   0.000227996 -2.05776e-005 -3.52621e-005 -2.05776e-005 -3.52621e-005     -0.999299   0.000713553
       12359.5   0.000244594   0.000228521 -2.06252e-005 -3.53773e-005 -2.06252e-005 -3.53773e-005     -0.999297   0.000715378
       12416.5    0.00024512   0.000229048 -2.06728e-005 -3.54929e-005 -2.06728e-005 -3.54929e-005     -0.999296   0.000717207
       12473.8   0.000245646   0.000229575 -2.07205e-005  -3.5609e-005 -2.07205e-005  -3.5609e-005     -0.999294   0.000719042
       12531.4   0.000246174   0.000230104 -2.07684e-005 -3.57255e-005 -2.07684e-005 -3.57255e-005     -0.999293   0.000720882
       12589.3   0.000246703   0.000230634 -2.08164e-005 -3.58424e-005 -2.08164e-005 -3.58424e-005     -0.999291   0.000722727
       12647.4   0.000247233   0.000231166 -2.08644e-005 -3.59598e-005 -2.08644e-005 -3.59598e-005      -0.99929   0.000724577
       12705.7   0.000247765   0.000231698 -2.09126e-005 -3.60775e-005 -2.09126e-005 -3.60775e-005     -0.999288   0.000726432
       12764.4   0.000248297   0.000232232 -2.09609e-005 -3.61958e-005 -2.09609e-005 -3.61958e-005     -0.999287   0.000728292
       12823.3   0.000248831   0.000232767 -2.10093e-005 -3.63144e-005 -2.10093e-005 -3.63144e-005     -0.999285   0.000730157
       12882.5   0.000249367   0.000233304 -2.10578e-005 -3.64335e-005 -2.10578e-005 -3.64335e-005     -0.999284   0.000732028
         12942   0.000249903   0.000233841 -2.11065e-005  -3.6553e-005 -2.11065e-005  -3.6553e-005     -0.999282   0.000733903
       13001.7    0.00025044    0.00023438 -2.11552e-005  -3.6673e-005 -2.11552e-005  -3.6673e-005     -0.999281   0.000735784
       13061.7   0.000250979    0.00023492 -2.12041e-005 -3.67934e-005 -2.12041e-005 -3.67934e-005     -0.999279    0.00073767
         13122   0.000251519   0.000235461 -2.12531e-005 -3.69142e-005 -2.12531e-005 -3.69142e-005     -0.999278   0.000739562
       13182.6   0.000252061   0.000236004 -2.13022e-005 -3.70355e-005 -2.13022e-005 -3.70355e-005     -0.999276   0.000741458
       13243.4   0.000252603   0.000236547 -2.13514e-005 -3.71572e-005 -2.13514e-005 -3.71572e-005     -0.999275    0.00074336
       13304.5   0.000253147   0.000237092 -2.14007e-005 -3.72794e-005 -2.14007e-005 -3.72794e-005     -0.999273   0.000745267
         13366   0.000253692   0.000237639 -2.14501e-005  -3.7402e-005 -2.14501e-005  -3.7402e-005     -0.999272   0.000747179
       13427.6   0.000254238   0.000238186 -2.14996e-005 -3.75251e-005 -2.14996e-005 -3.75251e-005      -0.99927   0.000749097
       13489.6   0.000254786   0.000238735 -2.15493e-005 -3.76486e-005 -2.15493e-005 -3.76486e-005     -0.999269    0.00075102
       13551.9   0.000255335   0.000239285 -2.15991e-005 -3.77726e-005 -2.15991e-005 -3.77726e-005     -0.999267   0.000752948
       13614.4   0.000255885   0.000239836  -2.1649e-005 -3.78971e-005  -2.1649e-005 -3.78971e-005     -0.999266   0.000754882
       13677.3   0.000256436   0.000240389  -2.1699e-005  -3.8022e-005  -2.1699e-005  -3.8022e-005     -0.999264   0.000756821
       13740.4   0.000256989   0.000240943 -2.17491e-005 -3.81474e-005 -2.17491e-005 -3.81474e-005     -0.999263   0.000758765
       13803.8   0.000257543   0.000241498 -2.17993e-005 -3.82732e-005 -2.17993e-005 -3.82732e-005     -0.999261   0.000760715
       13867.6   0.000258098   0.000242054 -2.18497e-005 -3.83995e-005 -2.18497e-005 -3.83995e-005     -0.999259    0.00076267
       13931.6   0.000258654   0.000242612 -2.19002e-005 -3.85263e-005 -2.19002e-005 -3.85263e-005     -0.999258   0.000764631
       13995.9   0.000259212   0.000243171 -2.19508e-005 -3.86535e-005 -2.19508e-005 -3.86535e-005     -0.999256   0.000766597
       14060.5   0.000259771   0.000243731 -2.20015e-005 -3.87812e-005 -2.20015e-005 -3.87812e-005     -0.999255   0.000768569
       14125.4   0.000260331   0.000244292 -2.20523e-005 -3.89094e-005 -2.20523e-005 -3.89094e-005     -0.999253   0.000770546
       14190.6   0.000260893   0.000244855 -2.21032e-005  -3.9038e-005 -2.21032e-005  -3.9038e-005     -0.999252   0.000772529
       14256.1   0.000261456   0.000245419 -2.21543e-005 -3.91671e-005 -2.21543e-005 -3.91671e-005      -0.99925   0.000774517
       14321.9    0.00026202   0.000245985 -2.22055e-005 -3.92967e-005 -2.22055e-005 -3.92967e-005     -0.999249    0.00077651
         14388   0.000262585   0.000246551 -2.22568e-005 -3.94268e-005 -2.22568e-005 -3.94268e-005     -0.999247   0.000778509
       14454.4   0.000263152   0.000247119 -2.23082e-005 -3.95574e-005 -2.23082e-005 -3.95574e-005     -0.999245   0.000780514
       14521.1    0.00026372   0.000247689 -2.23597e-005 -3.96884e-005 -2.23597e-005 -3.96884e-005     -0.999244   0.000782525
       14588.1   0.000264289   0.000248259 -2.24114e-005   -3.982e-005 -2.24114e-005   -3.982e-005     -0.999242   0.000784541
       14655.5    0.00026486   0.000248831 -2.24631e-005  -3.9952e-005 -2.24631e-005  -3.9952e-005     -0.999241   0.000786562
       14723.1   0.000265432   0.000249405  -2.2515e-005 -4.00845e-005  -2.2515e-005 -4.00845e-005     -0.999239   0.000788589
       14791.1   0.000266005   0.000249979 -2.25671e-005 -4.02175e-005 -2.25671e-005 -4.02175e-005     -0.999237   0.000790622
       14859.4    0.00026658   0.000250555 -2.26192e-005  -4.0351e-005 -2.26192e-005  -4.0351e-005     -0.999236   0.000792661
       14927.9   0.000267156   0.000251132 -2.26714e-005  -4.0485e-005 -2.26714e-005  -4.0485e-005     -0.999234   0.000794705
       14996.8   0.000267733   0.000251711 -2.27238e-005 -4.06195e-005 -2.27238e-005 -4.06195e-005     -0.999233   0.000796755
       15066.1   0.000268312   0.000252291 -2.27763e-005 -4.07545e-005 -2.27763e-005 -4.07545e-005     -0.999231   0.000798811
       15135.6   0.000268892   0.000252872 -2.28289e-005   -4.089e-005 -2.28289e-005   -4.089e-005     -0.999229   0.000800872
       15205.5   0.000269473   0.000253455 -2.28817e-005  -4.1026e-005 -2.28817e-005  -4.1026e-005     -0.999228    0.00080294
       15275.7   0.000270055   0.000254039 -2.29346e-005 -4.11625e-005 -2.29346e-005 -4.11625e-005     -0.999226   0.000805013
       15346.2   0.000270639   0.000254624 -2.29875e-005 -4.12995e-005 -2.29875e-005 -4.12995e-005     -0.999224   0.000807092
         15417   0.000271224    0.00025521 -2.30407e-005  -4.1437e-005 -2.30407e-005  -4.1437e-005     -0.999223   0.000809176
       15488.2   0.000271811   0.000255798 -2.30939e-005  -4.1575e-005 -2.30939e-005  -4.1575e-005     -0.999221   0.000811267
       15559.7   0.000272399   0.000256388 -2.31473e-005 -4.17136e-005 -2.31473e-005 -4.17136e-005     -0.999219   0.000813363
       15631.5   0.000272988   0.000256978 -2.32007e-005 -4.18527e-005 -2.32007e-005 -4.18527e-005     -0.999218   0.000815465
       15703.6   0.000273579    0.00025757 -2.32543e-005 -4.19922e-005 -2.32543e-005 -4.19922e-005     -0.999216   0.000817573
       15776.1   0.000274171   0.000258164 -2.33081e-005 -4.21323e-005 -2.33081e-005 -4.21323e-005     -0.999215   0.000819687
       15848.9   0.000274764   0.000258758 -2.33619e-005  -4.2273e-005 -2.33619e-005  -4.2273e-005     -0.999213   0.000821807
       15922.1   0.000275359   0.000259355 -2.34159e-005 -4.24141e-005 -2.34159e-005 -4.24141e-005     -0.999211   0.000823933
       15995.6   0.000275955   0.000259952   -2.347e-005 -4.25558e-005   -2.347e-005 -4.25558e-005      -0.99921   0.000826065
       16069.4   0.000276553   0.000260551 -2.35243e-005  -4.2698e-005 -2.35243e-005  -4.2698e-005     -0.999208   0.000828203
       16143.6   0.000277151   0.000261151 -2.35786e-005 -4.28407e-005 -2.35786e-005 -4.28407e-005     -0.999206   0.000830347
       16218.1   0.000277752   0.000261753 -2.36331e-005  -4.2984e-005 -2.36331e-005  -4.2984e-005     -0.999204   0.000832497
         16293   0.000278353   0.000262356 -2.36877e-005 -4.31278e-005 -2.36877e-005 -4.31278e-005     -0.999203   0.000834653
       16368.2   0.000278956    0.00026296 -2.37425e-005 -4.32722e-005 -2.37425e-005 -4.32722e-005     -0.999201   0.000836815
       16443.7    0.00027956   0.000263566 -2.37973e-005  -4.3417e-005 -2.37973e-005  -4.3417e-005     -0.999199   0.000838983
       16519.6   0.000280166   0.000264173 -2.38523e-005 -4.35625e-005 -2.38523e-005 -4.35625e-005     -0.999198   0.000841157
       16595.9   0.000280773   0.000264782 -2.39074e-005 -4.37084e-005 -2.39074e-005 -4.37084e-005     -0.999196   0.000843337
       16672.5   0.000281382   0.000265392 -2.39627e-005 -4.38549e-005 -2.39627e-005 -4.38549e-005     -0.999194   0.000845524
       16749.4   0.000281992   0.000266003 -2.40181e-005  -4.4002e-005 -2.40181e-005  -4.4002e-005     -0.999193   0.000847716
       16826.7   0.000282603   0.000266616 -2.40736e-005 -4.41496e-005 -2.40736e-005 -4.41496e-005     -0.999191   0.000849915
       16904.4   0.000283216    0.00026723 -2.41292e-005 -4.42978e-005 -2.41292e-005 -4.42978e-005     -0.999189    0.00085212
       16982.4    0.00028383   0.000267846  -2.4185e-005 -4.44465e-005  -2.4185e-005 -4.44465e-005     -0.999187   0.000854331
       17060.8   0.000284446   0.000268463 -2.42409e-005 -4.45958e-005 -2.42409e-005 -4.45958e-005     -0.999186   0.000856548
       17139.6   0.000285063   0.000269081 -2.42969e-005 -4.47456e-005 -2.42969e-005 -4.47456e-005     -0.999184   0.000858772
       17218.7   0.000285681   0.000269701  -2.4353e-005  -4.4896e-005  -2.4353e-005  -4.4896e-005     -0.999182   0.000861002
       17298.2   0.000286301   0.000270322 -2.44093e-005  -4.5047e-005 -2.44093e-005  -4.5047e-005     -0.999181   0.000863238
         17378   0.000286922   0.000270945 -2.44657e-005 -4.51986e-005 -2.44657e-005 -4.51986e-005     -0.999179   0.000865481
       17458.2   0.000287545   0.000271569 -2.45223e-005 -4.53507e-005 -2.45223e-005 -4.53507e-005     -0.999177    0.00086773
       17538.8   0.000288169   0.000272195  -2.4579e-005 -4.55033e-005  -2.4579e-005 -4.55033e-005     -0.999175   0.000869985
       17619.8   0.000288794   0.000272822 -2.46358e-005 -4.56566e-005 -2.46358e-005 -4.56566e-005     -0.999174   0.000872246
       17701.1   0.000289421   0.000273451 -2.46927e-005 -4.58104e-005 -2.46927e-005 -4.58104e-005     -0.999172   0.000874514
       17782.8    0.00029005    0.00027408 -2.47498e-005 -4.59648e-005 -2.47498e-005 -4.59648e-005      -0.99917   0.000876789
       17864.9   0.000290679   0.000274712  -2.4807e-005 -4.61198e-005  -2.4807e-005 -4.61198e-005     -0.999168    0.00087907
       17947.3   0.000291311   0.000275345 -2.48643e-005 -4.62754e-005 -2.48643e-005 -4.62754e-005     -0.999167   0.000881357
       18030.2   0.000291943   0.000275979 -2.49218e-005 -4.64315e-005 -2.49218e-005 -4.64315e-005     -0.999165   0.000883651
       18113.4   0.000292578   0.000276615 -2.49794e-005 -4.65883e-005 -2.49794e-005 -4.65883e-005     -0.999163   0.000885951
         18197   0.000293213   0.000277252 -2.50371e-005 -4.67456e-005 -2.50371e-005 -4.67456e-005     -0.999161   0.000888258
         18281    0.00029385   0.000277891  -2.5095e-005 -4.69035e-005  -2.5095e-005 -4.69035e-005     -0.999159   0.000890571
       18365.4   0.000294489   0.000278531  -2.5153e-005  -4.7062e-005  -2.5153e-005  -4.7062e-005     -0.999158   0.000892891
       18450.2   0.000295129   0.000279173 -2.52112e-005 -4.72212e-005 -2.52112e-005 -4.72212e-005     -0.999156   0.000895217
       18535.3    0.00029577   0.000279816 -2.52695e-005 -4.73809e-005 -2.52695e-005 -4.73809e-005     -0.999154    0.00089755
       18620.9   0.000296413    0.00028046 -2.53279e-005 -4.75412e-005 -2.53279e-005 -4.75412e-005     -0.999152    0.00089989
       18706.8   0.000297058   0.000281106 -2.53864e-005 -4.77021e-005 -2.53864e-005 -4.77021e-005      -0.99915   0.000902236
       18793.2   0.000297704   0.000281754 -2.54451e-005 -4.78637e-005 -2.54451e-005 -4.78637e-005     -0.999149   0.000904589
       18879.9   0.000298351   0.000282403 -2.55039e-005 -4.80258e-005 -2.55039e-005 -4.80258e-005     -0.999147   0.000906949
       18967.1      0.000299   0.000283053 -2.55629e-005 -4.81886e-005 -2.55629e-005 -4.81886e-005     -0.999145   0.000909315
       19054.6    0.00029965   0.000283705  -2.5622e-005 -4.83519e-005  -2.5622e-005 -4.83519e-005     -0.999143   0.000911689
       19142.6   0.000300302   0.000284359 -2.56812e-005 -4.85159e-005 -2.56812e-005 -4.85159e-005     -0.999141   0.000914068
       19230.9   0.000300956   0.000285014 -2.57406e-005 -4.86805e-005 -2.57406e-005 -4.86805e-005      -0.99914   0.000916455
       19319.7   0.000301611   0.000285671 -2.58001e-005 -4.88458e-005 -2.58001e-005 -4.88458e-005     -0.999138   0.000918848
       19408.9   0.000302267   0.000286329 -2.58597e-005 -4.90116e-005 -2.58597e-005 -4.90116e-005     -0.999136   0.000921249
       19498.4   0.000302925   0.000286988 -2.59195e-005 -4.91781e-005 -2.59195e-005 -4.91781e-005     -0.999134   0.000923656
       19588.4   0.000303584   0.000287649 -2.59795e-005 -4.93452e-005 -2.59795e-005 -4.93452e-005     -0.999132   0.000926069
       19678.9   0.000304245   0.000288312 -2.60395e-005  -4.9513e-005 -2.60395e-005  -4.9513e-005      -0.99913    0.00092849
       19769.7   0.000304908   0.000288976 -2.60997e-005 -4.96814e-005 -2.60997e-005 -4.96814e-005     -0.999128   0.000930918
       19860.9   0.000305572   0.000289642 -2.61601e-005 -4.98504e-005 -2.61601e-005 -4.98504e-005     -0.999127   0.000933352
       19952.6   0.000306237   0.000290309 -2.62206e-005 -5.00201e-005 -2.62206e-005 -5.00201e-005     -0.999125   0.000935794
       20044.7   0.000306904   0.000290978 -2.62812e-005 -5.01904e-005 -2.62812e-005 -5.01904e-005     -0.999123   0.000938242
       20137.2   0.000307573   0.000291648  -2.6342e-005 -5.03613e-005  -2.6342e-005 -5.03613e-005     -0.999121   0.000940698
       20230.2   0.000308243    0.00029232 -2.64029e-005 -5.05329e-005 -2.64029e-005 -5.05329e-005     -0.999119    0.00094316
       20323.6   0.000308914   0.000292993 -2.64639e-005 -5.07052e-005 -2.64639e-005 -5.07052e-005     -0.999117    0.00094563
