! NPort=2 DATA=4501 NOISE=0 GROUPDELAY=0 COMPLEX_DATAFORMAT=RI
! NumOfBlock=1 NumOfParam=0
!
! .MODEL Smodel S TSTONEFILE=./link_rx/link_rx_l3/lr10000_10000000000000dec_0_5.s2p TYPE=S
!   -- The above .MODEL line can be used for the S element in the netlist.
!
!
# Hz S RI R             50
         10000   0.000221679   0.000205561 -4.45847e-008 -5.81696e-008 -4.45847e-008 -5.81696e-008     -0.999112    0.00088514
       10046.2   0.000222152   0.000206034 -4.46912e-008 -5.83355e-008 -4.46912e-008 -5.83355e-008      -0.99911   0.000887325
       10092.5   0.000222626   0.000206509  -4.4798e-008 -5.85019e-008  -4.4798e-008 -5.85019e-008     -0.999108   0.000889515
       10139.1   0.000223101   0.000206985 -4.49051e-008 -5.86688e-008 -4.49051e-008 -5.86688e-008     -0.999106   0.000891712
       10185.9   0.000223577   0.000207462 -4.50125e-008 -5.88363e-008 -4.50125e-008 -5.88363e-008     -0.999104   0.000893914
       10232.9   0.000224054    0.00020794 -4.51201e-008 -5.90043e-008 -4.51201e-008 -5.90043e-008     -0.999102   0.000896121
       10280.2   0.000224532   0.000208419  -4.5228e-008 -5.91728e-008  -4.5228e-008 -5.91728e-008       -0.9991   0.000898335
       10327.6   0.000225011   0.000208899 -4.53362e-008 -5.93419e-008 -4.53362e-008 -5.93419e-008     -0.999098   0.000900554
       10375.3   0.000225492   0.000209381 -4.54447e-008 -5.95115e-008 -4.54447e-008 -5.95115e-008     -0.999097   0.000902779
       10423.2   0.000225973   0.000209863 -4.55534e-008 -5.96816e-008 -4.55534e-008 -5.96816e-008     -0.999095    0.00090501
       10471.3   0.000226456   0.000210347 -4.56625e-008 -5.98523e-008 -4.56625e-008 -5.98523e-008     -0.999093   0.000907247
       10519.6   0.000226939   0.000210831 -4.57718e-008 -6.00235e-008 -4.57718e-008 -6.00235e-008     -0.999091   0.000909489
       10568.2   0.000227424   0.000211317 -4.58814e-008 -6.01953e-008 -4.58814e-008 -6.01953e-008     -0.999089   0.000911738
         10617    0.00022791   0.000211804 -4.59913e-008 -6.03675e-008 -4.59913e-008 -6.03675e-008     -0.999087   0.000913992
         10666   0.000228397   0.000212292 -4.61014e-008 -6.05404e-008 -4.61014e-008 -6.05404e-008     -0.999085   0.000916252
       10715.2   0.000228885   0.000212781 -4.62119e-008 -6.07138e-008 -4.62119e-008 -6.07138e-008     -0.999083   0.000918518
       10764.7   0.000229375   0.000213271 -4.63226e-008 -6.08877e-008 -4.63226e-008 -6.08877e-008     -0.999081   0.000920791
       10814.3   0.000229865   0.000213763 -4.64337e-008 -6.10622e-008 -4.64337e-008 -6.10622e-008     -0.999079   0.000923069
       10864.3   0.000230356   0.000214255  -4.6545e-008 -6.12373e-008  -4.6545e-008 -6.12373e-008     -0.999077   0.000925353
       10914.4   0.000230849   0.000214749 -4.66566e-008 -6.14129e-008 -4.66566e-008 -6.14129e-008     -0.999075   0.000927643
       10964.8   0.000231343   0.000215244 -4.67685e-008  -6.1589e-008 -4.67685e-008  -6.1589e-008     -0.999073   0.000929939
       11015.4   0.000231838    0.00021574 -4.68807e-008 -6.17657e-008 -4.68807e-008 -6.17657e-008     -0.999071   0.000932241
       11066.2   0.000232334   0.000216237 -4.69932e-008  -6.1943e-008 -4.69932e-008  -6.1943e-008     -0.999069   0.000934549
       11117.3   0.000232831   0.000216735 -4.71059e-008 -6.21208e-008 -4.71059e-008 -6.21208e-008     -0.999067   0.000936863
       11168.6    0.00023333   0.000217234  -4.7219e-008 -6.22992e-008  -4.7219e-008 -6.22992e-008     -0.999065   0.000939183
       11220.2   0.000233829   0.000217735 -4.73324e-008 -6.24782e-008 -4.73324e-008 -6.24782e-008     -0.999063   0.000941509
         11272    0.00023433   0.000218236 -4.74461e-008 -6.26578e-008 -4.74461e-008 -6.26578e-008     -0.999061   0.000943841
         11324   0.000234832   0.000218739   -4.756e-008 -6.28379e-008   -4.756e-008 -6.28379e-008     -0.999059    0.00094618
       11376.3   0.000235334   0.000219243 -4.76743e-008 -6.30186e-008 -4.76743e-008 -6.30186e-008     -0.999057   0.000948525
       11428.8   0.000235839   0.000219748 -4.77888e-008 -6.31998e-008 -4.77888e-008 -6.31998e-008     -0.999055   0.000950875
       11481.5   0.000236344   0.000220255 -4.79037e-008 -6.33816e-008 -4.79037e-008 -6.33816e-008     -0.999053   0.000953232
       11534.5    0.00023685   0.000220762 -4.80189e-008 -6.35641e-008 -4.80189e-008 -6.35641e-008     -0.999051   0.000955595
       11587.8   0.000237358   0.000221271 -4.81343e-008 -6.37471e-008 -4.81343e-008 -6.37471e-008     -0.999049   0.000957965
       11641.3   0.000237867   0.000221781 -4.82501e-008 -6.39306e-008 -4.82501e-008 -6.39306e-008     -0.999047    0.00096034
         11695   0.000238377   0.000222292 -4.83661e-008 -6.41148e-008 -4.83661e-008 -6.41148e-008     -0.999045   0.000962722
         11749   0.000238888   0.000222804 -4.84825e-008 -6.42995e-008 -4.84825e-008 -6.42995e-008     -0.999043    0.00096511
       11803.2     0.0002394   0.000223317 -4.85992e-008 -6.44849e-008 -4.85992e-008 -6.44849e-008     -0.999041   0.000967505
       11857.7   0.000239913   0.000223832 -4.87162e-008 -6.46708e-008 -4.87162e-008 -6.46708e-008     -0.999039   0.000969905
       11912.4   0.000240428   0.000224347 -4.88335e-008 -6.48573e-008 -4.88335e-008 -6.48573e-008     -0.999037   0.000972312
       11967.4   0.000240944   0.000224864 -4.89511e-008 -6.50445e-008 -4.89511e-008 -6.50445e-008     -0.999035   0.000974726
       12022.6   0.000241461   0.000225382  -4.9069e-008 -6.52322e-008  -4.9069e-008 -6.52322e-008     -0.999032   0.000977145
       12078.1   0.000241979   0.000225902 -4.91872e-008 -6.54205e-008 -4.91872e-008 -6.54205e-008      -0.99903   0.000979571
       12133.9   0.000242498   0.000226422 -4.93058e-008 -6.56094e-008 -4.93058e-008 -6.56094e-008     -0.999028   0.000982004
       12189.9   0.000243019   0.000226944 -4.94246e-008 -6.57989e-008 -4.94246e-008 -6.57989e-008     -0.999026   0.000984443
       12246.2   0.000243541   0.000227467 -4.95438e-008 -6.59891e-008 -4.95438e-008 -6.59891e-008     -0.999024   0.000986888
       12302.7   0.000244064   0.000227991 -4.96633e-008 -6.61798e-008 -4.96633e-008 -6.61798e-008     -0.999022    0.00098934
       12359.5   0.000244588   0.000228516 -4.97831e-008 -6.63711e-008 -4.97831e-008 -6.63711e-008      -0.99902   0.000991798
       12416.5   0.000245113   0.000229043 -4.99032e-008 -6.65631e-008 -4.99032e-008 -6.65631e-008     -0.999018   0.000994263
       12473.8    0.00024564    0.00022957 -5.00236e-008 -6.67557e-008 -5.00236e-008 -6.67557e-008     -0.999016   0.000996734
       12531.4   0.000246168   0.000230099 -5.01444e-008 -6.69489e-008 -5.01444e-008 -6.69489e-008     -0.999014   0.000999212
       12589.3   0.000246697   0.000230629 -5.02655e-008 -6.71427e-008 -5.02655e-008 -6.71427e-008     -0.999011     0.0010017
       12647.4   0.000247227   0.000231161 -5.03869e-008 -6.73371e-008 -5.03869e-008 -6.73371e-008     -0.999009    0.00100419
       12705.7   0.000247758   0.000231693 -5.05086e-008 -6.75322e-008 -5.05086e-008 -6.75322e-008     -0.999007    0.00100668
       12764.4   0.000248291   0.000232227 -5.06306e-008 -6.77278e-008 -5.06306e-008 -6.77278e-008     -0.999005    0.00100919
       12823.3   0.000248825   0.000232762  -5.0753e-008 -6.79241e-008  -5.0753e-008 -6.79241e-008     -0.999003     0.0010117
       12882.5    0.00024936   0.000233298 -5.08757e-008 -6.81211e-008 -5.08757e-008 -6.81211e-008     -0.999001    0.00101422
         12942   0.000249896   0.000233836 -5.09987e-008 -6.83186e-008 -5.09987e-008 -6.83186e-008     -0.998999    0.00101674
       13001.7   0.000250434   0.000234375 -5.11221e-008 -6.85168e-008 -5.11221e-008 -6.85168e-008     -0.998996    0.00101927
       13061.7   0.000250973   0.000234915 -5.12457e-008 -6.87157e-008 -5.12457e-008 -6.87157e-008     -0.998994    0.00102181
         13122   0.000251513   0.000235456 -5.13697e-008 -6.89151e-008 -5.13697e-008 -6.89151e-008     -0.998992    0.00102435
       13182.6   0.000252054   0.000235998 -5.14941e-008 -6.91153e-008 -5.14941e-008 -6.91153e-008      -0.99899     0.0010269
       13243.4   0.000252597   0.000236542 -5.16188e-008  -6.9316e-008 -5.16188e-008  -6.9316e-008     -0.998988    0.00102946
       13304.5    0.00025314   0.000237087 -5.17438e-008 -6.95174e-008 -5.17438e-008 -6.95174e-008     -0.998986    0.00103202
         13366   0.000253686   0.000237633 -5.18691e-008 -6.97195e-008 -5.18691e-008 -6.97195e-008     -0.998983     0.0010346
       13427.6   0.000254232   0.000238181 -5.19948e-008 -6.99222e-008 -5.19948e-008 -6.99222e-008     -0.998981    0.00103717
       13489.6   0.000254779   0.000238729 -5.21208e-008 -7.01255e-008 -5.21208e-008 -7.01255e-008     -0.998979    0.00103976
       13551.9   0.000255328   0.000239279 -5.22472e-008 -7.03295e-008 -5.22472e-008 -7.03295e-008     -0.998977    0.00104235
       13614.4   0.000255878   0.000239831 -5.23739e-008 -7.05342e-008 -5.23739e-008 -7.05342e-008     -0.998975    0.00104495
       13677.3    0.00025643   0.000240383 -5.25009e-008 -7.07395e-008 -5.25009e-008 -7.07395e-008     -0.998972    0.00104755
       13740.4   0.000256982   0.000240937 -5.26283e-008 -7.09455e-008 -5.26283e-008 -7.09455e-008      -0.99897    0.00105017
       13803.8   0.000257536   0.000241492  -5.2756e-008 -7.11521e-008  -5.2756e-008 -7.11521e-008     -0.998968    0.00105278
       13867.6   0.000258091   0.000242049 -5.28841e-008 -7.13594e-008 -5.28841e-008 -7.13594e-008     -0.998966    0.00105541
       13931.6   0.000258648   0.000242606 -5.30125e-008 -7.15674e-008 -5.30125e-008 -7.15674e-008     -0.998963    0.00105804
       13995.9   0.000259205   0.000243165 -5.31412e-008 -7.17761e-008 -5.31412e-008 -7.17761e-008     -0.998961    0.00106068
       14060.5   0.000259764   0.000243725 -5.32703e-008 -7.19854e-008 -5.32703e-008 -7.19854e-008     -0.998959    0.00106333
       14125.4   0.000260324   0.000244287 -5.33998e-008 -7.21954e-008 -5.33998e-008 -7.21954e-008     -0.998957    0.00106598
       14190.6   0.000260886    0.00024485 -5.35296e-008 -7.24061e-008 -5.35296e-008 -7.24061e-008     -0.998954    0.00106865
       14256.1   0.000261449   0.000245414 -5.36598e-008 -7.26174e-008 -5.36598e-008 -7.26174e-008     -0.998952    0.00107131
       14321.9   0.000262013   0.000245979 -5.37903e-008 -7.28295e-008 -5.37903e-008 -7.28295e-008      -0.99895    0.00107399
         14388   0.000262578   0.000246546 -5.39211e-008 -7.30422e-008 -5.39211e-008 -7.30422e-008     -0.998948    0.00107667
       14454.4   0.000263145   0.000247114 -5.40524e-008 -7.32556e-008 -5.40524e-008 -7.32556e-008     -0.998945    0.00107936
       14521.1   0.000263713   0.000247683 -5.41839e-008 -7.34697e-008 -5.41839e-008 -7.34697e-008     -0.998943    0.00108206
       14588.1   0.000264282   0.000248254 -5.43159e-008 -7.36845e-008 -5.43159e-008 -7.36845e-008     -0.998941    0.00108476
       14655.5   0.000264853   0.000248826 -5.44482e-008    -7.39e-008 -5.44482e-008    -7.39e-008     -0.998939    0.00108747
       14723.1   0.000265425   0.000249399 -5.45808e-008 -7.41162e-008 -5.45808e-008 -7.41162e-008     -0.998936    0.00109019
       14791.1   0.000265998   0.000249974 -5.47138e-008 -7.43331e-008 -5.47138e-008 -7.43331e-008     -0.998934    0.00109292
       14859.4   0.000266573    0.00025055 -5.48472e-008 -7.45507e-008 -5.48472e-008 -7.45507e-008     -0.998932    0.00109565
       14927.9   0.000267149   0.000251127  -5.4981e-008  -7.4769e-008  -5.4981e-008  -7.4769e-008     -0.998929    0.00109839
       14996.8   0.000267726   0.000251705 -5.51151e-008  -7.4988e-008 -5.51151e-008  -7.4988e-008     -0.998927    0.00110114
       15066.1   0.000268305   0.000252285 -5.52495e-008 -7.52077e-008 -5.52495e-008 -7.52077e-008     -0.998925    0.00110389
       15135.6   0.000268884   0.000252866 -5.53844e-008 -7.54281e-008 -5.53844e-008 -7.54281e-008     -0.998922    0.00110665
       15205.5   0.000269466   0.000253449 -5.55196e-008 -7.56492e-008 -5.55196e-008 -7.56492e-008      -0.99892    0.00110942
       15275.7   0.000270048   0.000254033 -5.56552e-008 -7.58711e-008 -5.56552e-008 -7.58711e-008     -0.998918     0.0011122
       15346.2   0.000270632   0.000254618 -5.57911e-008 -7.60937e-008 -5.57911e-008 -7.60937e-008     -0.998915    0.00111498
         15417   0.000271217   0.000255205 -5.59275e-008 -7.63169e-008 -5.59275e-008 -7.63169e-008     -0.998913    0.00111778
       15488.2   0.000271804   0.000255793 -5.60642e-008  -7.6541e-008 -5.60642e-008  -7.6541e-008     -0.998911    0.00112058
       15559.7   0.000272392   0.000256382 -5.62013e-008 -7.67657e-008 -5.62013e-008 -7.67657e-008     -0.998908    0.00112338
       15631.5   0.000272981   0.000256973 -5.63387e-008 -7.69912e-008 -5.63387e-008 -7.69912e-008     -0.998906     0.0011262
       15703.6   0.000273572   0.000257565 -5.64766e-008 -7.72174e-008 -5.64766e-008 -7.72174e-008     -0.998904    0.00112902
       15776.1   0.000274164   0.000258158 -5.66148e-008 -7.74443e-008 -5.66148e-008 -7.74443e-008     -0.998901    0.00113185
       15848.9   0.000274757   0.000258753 -5.67534e-008  -7.7672e-008 -5.67534e-008  -7.7672e-008     -0.998899    0.00113468
       15922.1   0.000275352   0.000259349 -5.68923e-008 -7.79004e-008 -5.68923e-008 -7.79004e-008     -0.998896    0.00113753
       15995.6   0.000275948   0.000259946 -5.70317e-008 -7.81296e-008 -5.70317e-008 -7.81296e-008     -0.998894    0.00114038
       16069.4   0.000276545   0.000260545 -5.71715e-008 -7.83595e-008 -5.71715e-008 -7.83595e-008     -0.998892    0.00114324
       16143.6   0.000277144   0.000261145 -5.73116e-008 -7.85902e-008 -5.73116e-008 -7.85902e-008     -0.998889    0.00114611
       16218.1   0.000277744   0.000261747 -5.74521e-008 -7.88216e-008 -5.74521e-008 -7.88216e-008     -0.998887    0.00114898
         16293   0.000278346    0.00026235  -5.7593e-008 -7.90538e-008  -5.7593e-008 -7.90538e-008     -0.998884    0.00115186
       16368.2   0.000278949   0.000262954 -5.77344e-008 -7.92867e-008 -5.77344e-008 -7.92867e-008     -0.998882    0.00115475
       16443.7   0.000279553    0.00026356 -5.78761e-008 -7.95203e-008 -5.78761e-008 -7.95203e-008     -0.998879    0.00115765
       16519.6   0.000280159   0.000264167 -5.80182e-008 -7.97548e-008 -5.80182e-008 -7.97548e-008     -0.998877    0.00116056
       16595.9   0.000280766   0.000264776 -5.81606e-008   -7.999e-008 -5.81606e-008   -7.999e-008     -0.998875    0.00116347
       16672.5   0.000281374   0.000265386 -5.83035e-008  -8.0226e-008 -5.83035e-008  -8.0226e-008     -0.998872    0.00116639
       16749.4   0.000281984   0.000265997 -5.84468e-008 -8.04627e-008 -5.84468e-008 -8.04627e-008      -0.99887    0.00116932
       16826.7   0.000282596    0.00026661 -5.85905e-008 -8.07002e-008 -5.85905e-008 -8.07002e-008     -0.998867    0.00117226
       16904.4   0.000283208   0.000267224 -5.87346e-008 -8.09385e-008 -5.87346e-008 -8.09385e-008     -0.998865     0.0011752
       16982.4   0.000283822    0.00026784 -5.88791e-008 -8.11776e-008 -5.88791e-008 -8.11776e-008     -0.998862    0.00117816
       17060.8   0.000284438   0.000268457  -5.9024e-008 -8.14174e-008  -5.9024e-008 -8.14174e-008      -0.99886    0.00118112
       17139.6   0.000285055   0.000269075 -5.91693e-008  -8.1658e-008 -5.91693e-008  -8.1658e-008     -0.998857    0.00118409
       17218.7   0.000285673   0.000269695  -5.9315e-008 -8.18994e-008  -5.9315e-008 -8.18994e-008     -0.998855    0.00118706
       17298.2   0.000286293   0.000270317 -5.94611e-008 -8.21417e-008 -5.94611e-008 -8.21417e-008     -0.998852    0.00119005
         17378   0.000286914   0.000270939 -5.96077e-008 -8.23846e-008 -5.96077e-008 -8.23846e-008      -0.99885    0.00119304
       17458.2   0.000287537   0.000271564 -5.97546e-008 -8.26284e-008 -5.97546e-008 -8.26284e-008     -0.998847    0.00119604
       17538.8   0.000288161   0.000272189  -5.9902e-008  -8.2873e-008  -5.9902e-008  -8.2873e-008     -0.998845    0.00119905
       17619.8   0.000288786   0.000272816 -6.00497e-008 -8.31184e-008 -6.00497e-008 -8.31184e-008     -0.998842    0.00120207
       17701.1   0.000289413   0.000273445 -6.01979e-008 -8.33646e-008 -6.01979e-008 -8.33646e-008      -0.99884    0.00120509
       17782.8   0.000290042   0.000274075 -6.03465e-008 -8.36116e-008 -6.03465e-008 -8.36116e-008     -0.998837    0.00120813
       17864.9   0.000290672   0.000274706 -6.04956e-008 -8.38594e-008 -6.04956e-008 -8.38594e-008     -0.998835    0.00121117
       17947.3   0.000291303   0.000275339  -6.0645e-008  -8.4108e-008  -6.0645e-008  -8.4108e-008     -0.998832    0.00121422
       18030.2   0.000291935   0.000275973 -6.07949e-008 -8.43574e-008 -6.07949e-008 -8.43574e-008      -0.99883    0.00121728
       18113.4    0.00029257   0.000276609 -6.09452e-008 -8.46077e-008 -6.09452e-008 -8.46077e-008     -0.998827    0.00122034
         18197   0.000293205   0.000277246 -6.10959e-008 -8.48588e-008 -6.10959e-008 -8.48588e-008     -0.998825    0.00122342
         18281   0.000293842   0.000277885  -6.1247e-008 -8.51107e-008  -6.1247e-008 -8.51107e-008     -0.998822     0.0012265
       18365.4   0.000294481   0.000278525 -6.13986e-008 -8.53634e-008 -6.13986e-008 -8.53634e-008      -0.99882    0.00122959
       18450.2   0.000295121   0.000279167 -6.15506e-008 -8.56169e-008 -6.15506e-008 -8.56169e-008     -0.998817    0.00123269
       18535.3   0.000295762    0.00027981 -6.17031e-008 -8.58713e-008 -6.17031e-008 -8.58713e-008     -0.998814     0.0012358
       18620.9   0.000296405   0.000280454  -6.1856e-008 -8.61265e-008  -6.1856e-008 -8.61265e-008     -0.998812    0.00123891
       18706.8    0.00029705     0.0002811 -6.20093e-008 -8.63826e-008 -6.20093e-008 -8.63826e-008     -0.998809    0.00124204
       18793.2   0.000297696   0.000281748  -6.2163e-008 -8.66394e-008  -6.2163e-008 -8.66394e-008     -0.998807    0.00124517
       18879.9   0.000298343   0.000282397 -6.23172e-008 -8.68972e-008 -6.23172e-008 -8.68972e-008     -0.998804    0.00124831
       18967.1   0.000298992   0.000283047 -6.24719e-008 -8.71558e-008 -6.24719e-008 -8.71558e-008     -0.998801    0.00125146
       19054.6   0.000299642   0.000283699  -6.2627e-008 -8.74152e-008  -6.2627e-008 -8.74152e-008     -0.998799    0.00125462
       19142.6   0.000300294   0.000284353 -6.27825e-008 -8.76755e-008 -6.27825e-008 -8.76755e-008     -0.998796    0.00125779
       19230.9   0.000300948   0.000285008 -6.29385e-008 -8.79366e-008 -6.29385e-008 -8.79366e-008     -0.998794    0.00126096
       19319.7   0.000301602   0.000285665 -6.30949e-008 -8.81986e-008 -6.30949e-008 -8.81986e-008     -0.998791    0.00126415
       19408.9   0.000302259   0.000286323 -6.32517e-008 -8.84615e-008 -6.32517e-008 -8.84615e-008     -0.998788    0.00126734
       19498.4   0.000302917   0.000286982 -6.34091e-008 -8.87252e-008 -6.34091e-008 -8.87252e-008     -0.998786    0.00127054
       19588.4   0.000303576   0.000287643 -6.35668e-008 -8.89898e-008 -6.35668e-008 -8.89898e-008     -0.998783    0.00127375
       19678.9   0.000304237   0.000288306 -6.37251e-008 -8.92553e-008 -6.37251e-008 -8.92553e-008      -0.99878    0.00127697
       19769.7   0.000304899    0.00028897 -6.38838e-008 -8.95216e-008 -6.38838e-008 -8.95216e-008     -0.998778     0.0012802
       19860.9   0.000305563   0.000289636 -6.40429e-008 -8.97888e-008 -6.40429e-008 -8.97888e-008     -0.998775    0.00128343
       19952.6   0.000306229   0.000290303 -6.42025e-008 -9.00569e-008 -6.42025e-008 -9.00569e-008     -0.998772    0.00128668
       20044.7   0.000306896   0.000290972 -6.43626e-008 -9.03259e-008 -6.43626e-008 -9.03259e-008      -0.99877    0.00128993
       20137.2   0.000307564   0.000291642 -6.45231e-008 -9.05958e-008 -6.45231e-008 -9.05958e-008     -0.998767    0.00129319
       20230.2   0.000308234   0.000292314 -6.46841e-008 -9.08666e-008 -6.46841e-008 -9.08666e-008     -0.998764    0.00129647
       20323.6   0.000308906   0.000292987 -6.48456e-008 -9.11382e-008 -6.48456e-008 -9.11382e-008     -0.998762    0.00129975
