! NPort=2 DATA=4501 NOISE=0 GROUPDELAY=0 COMPLEX_DATAFORMAT=RI
! NumOfBlock=1 NumOfParam=0
!
! .MODEL Smodel S TSTONEFILE=./link_rx/link_rx_l3/lr10000_10000000000000dec_0_1.s2p TYPE=S
!   -- The above .MODEL line can be used for the S element in the netlist.
!
!
# Hz S RI R             50
         10000     -0.332939   0.000386733      0.666469  -0.000204044      0.666469  -0.000204044     -0.333235  9.13469e-005
       10046.2     -0.332938   0.000387673      0.666469  -0.000204563      0.666469  -0.000204563     -0.333235  9.15573e-005
       10092.5     -0.332937   0.000388616      0.666468  -0.000205084      0.666468  -0.000205084     -0.333234  9.17683e-005
       10139.1     -0.332936   0.000389561      0.666468  -0.000205607      0.666468  -0.000205607     -0.333234  9.19797e-005
       10185.9     -0.332935   0.000390508      0.666467   -0.00020613      0.666467   -0.00020613     -0.333234  9.21916e-005
       10232.9     -0.332935   0.000391458      0.666467  -0.000206655      0.666467  -0.000206655     -0.333234   9.2404e-005
       10280.2     -0.332934   0.000392411      0.666467  -0.000207182      0.666467  -0.000207182     -0.333234  9.26169e-005
       10327.6     -0.332933   0.000393365      0.666466   -0.00020771      0.666466   -0.00020771     -0.333233  9.28302e-005
       10375.3     -0.332932   0.000394322      0.666466   -0.00020824      0.666466   -0.00020824     -0.333233  9.30441e-005
       10423.2     -0.332931   0.000395282      0.666465  -0.000208771      0.666465  -0.000208771     -0.333233  9.32584e-005
       10471.3      -0.33293   0.000396244      0.666465  -0.000209303      0.666465  -0.000209303     -0.333233  9.34733e-005
       10519.6     -0.332929   0.000397209      0.666464  -0.000209837      0.666464  -0.000209837     -0.333232  9.36886e-005
       10568.2     -0.332929   0.000398176      0.666464  -0.000210372      0.666464  -0.000210372     -0.333232  9.39045e-005
         10617     -0.332928   0.000399145      0.666464  -0.000210909      0.666464  -0.000210909     -0.333232  9.41208e-005
         10666     -0.332927   0.000400117      0.666463  -0.000211447      0.666463  -0.000211447     -0.333232  9.43376e-005
       10715.2     -0.332926   0.000401091      0.666463  -0.000211987      0.666463  -0.000211987     -0.333232   9.4555e-005
       10764.7     -0.332925   0.000402068      0.666462  -0.000212528      0.666462  -0.000212528     -0.333231  9.47728e-005
       10814.3     -0.332924   0.000403048      0.666462  -0.000213071      0.666462  -0.000213071     -0.333231  9.49911e-005
       10864.3     -0.332923    0.00040403      0.666461  -0.000213615      0.666461  -0.000213615     -0.333231    9.521e-005
       10914.4     -0.332922   0.000405014      0.666461  -0.000214161      0.666461  -0.000214161     -0.333231  9.54293e-005
       10964.8     -0.332922   0.000406001      0.666461  -0.000214708      0.666461  -0.000214708     -0.333231  9.56492e-005
       11015.4     -0.332921    0.00040699       0.66646  -0.000215257       0.66646  -0.000215257      -0.33323  9.58695e-005
       11066.2      -0.33292   0.000407982       0.66646  -0.000215807       0.66646  -0.000215807      -0.33323  9.60904e-005
       11117.3     -0.332919   0.000408977      0.666459  -0.000216359      0.666459  -0.000216359      -0.33323  9.63117e-005
       11168.6     -0.332918   0.000409974      0.666459  -0.000216912      0.666459  -0.000216912      -0.33323  9.65336e-005
       11220.2     -0.332917   0.000410973      0.666458  -0.000217467      0.666458  -0.000217467     -0.333229   9.6756e-005
         11272     -0.332916   0.000411975      0.666458  -0.000218024      0.666458  -0.000218024     -0.333229  9.69789e-005
         11324     -0.332915    0.00041298      0.666457  -0.000218581      0.666457  -0.000218581     -0.333229  9.72023e-005
       11376.3     -0.332914   0.000413987      0.666457  -0.000219141      0.666457  -0.000219141     -0.333229  9.74262e-005
       11428.8     -0.332914   0.000414997      0.666457  -0.000219702      0.666457  -0.000219702     -0.333229  9.76507e-005
       11481.5     -0.332913    0.00041601      0.666456  -0.000220264      0.666456  -0.000220264     -0.333228  9.78756e-005
       11534.5     -0.332912   0.000417025      0.666456  -0.000220828      0.666456  -0.000220828     -0.333228  9.81011e-005
       11587.8     -0.332911   0.000418042      0.666455  -0.000221394      0.666455  -0.000221394     -0.333228  9.83271e-005
       11641.3      -0.33291   0.000419062      0.666455  -0.000221961      0.666455  -0.000221961     -0.333228  9.85536e-005
         11695     -0.332909   0.000420085      0.666454   -0.00022253      0.666454   -0.00022253     -0.333227  9.87806e-005
         11749     -0.332908   0.000421111      0.666454  -0.000223101      0.666454  -0.000223101     -0.333227  9.90082e-005
       11803.2     -0.332907   0.000422139      0.666453  -0.000223672      0.666453  -0.000223672     -0.333227  9.92363e-005
       11857.7     -0.332906   0.000423169      0.666453  -0.000224246      0.666453  -0.000224246     -0.333227  9.94649e-005
       11912.4     -0.332905   0.000424203      0.666452  -0.000224821      0.666452  -0.000224821     -0.333226   9.9694e-005
       11967.4     -0.332904   0.000425239      0.666452  -0.000225398      0.666452  -0.000225398     -0.333226  9.99237e-005
       12022.6     -0.332904   0.000426277      0.666451  -0.000225976      0.666451  -0.000225976     -0.333226   0.000100154
       12078.1     -0.332903   0.000427319      0.666451  -0.000226556      0.666451  -0.000226556     -0.333226   0.000100385
       12133.9     -0.332902   0.000428363      0.666451  -0.000227138      0.666451  -0.000227138     -0.333226   0.000100616
       12189.9     -0.332901   0.000429409       0.66645  -0.000227721       0.66645  -0.000227721     -0.333225   0.000100848
       12246.2       -0.3329   0.000430459       0.66645  -0.000228305       0.66645  -0.000228305     -0.333225    0.00010108
       12302.7     -0.332899   0.000431511      0.666449  -0.000228892      0.666449  -0.000228892     -0.333225   0.000101313
       12359.5     -0.332898   0.000432565      0.666449   -0.00022948      0.666449   -0.00022948     -0.333225   0.000101546
       12416.5     -0.332897   0.000433623      0.666448  -0.000230069      0.666448  -0.000230069     -0.333224    0.00010178
       12473.8     -0.332896   0.000434683      0.666448  -0.000230661      0.666448  -0.000230661     -0.333224   0.000102015
       12531.4     -0.332895   0.000435746      0.666447  -0.000231254      0.666447  -0.000231254     -0.333224    0.00010225
       12589.3     -0.332894   0.000436812      0.666447  -0.000231848      0.666447  -0.000231848     -0.333224   0.000102485
       12647.4     -0.332893    0.00043788      0.666446  -0.000232445      0.666446  -0.000232445     -0.333223   0.000102721
       12705.7     -0.332892   0.000438951      0.666446  -0.000233042      0.666446  -0.000233042     -0.333223   0.000102958
       12764.4     -0.332891   0.000440025      0.666445  -0.000233642      0.666445  -0.000233642     -0.333223   0.000103195
       12823.3      -0.33289   0.000441102      0.666445  -0.000234243      0.666445  -0.000234243     -0.333223   0.000103433
       12882.5     -0.332889   0.000442181      0.666444  -0.000234846      0.666444  -0.000234846     -0.333223   0.000103671
         12942     -0.332888   0.000443263      0.666444  -0.000235451      0.666444  -0.000235451     -0.333222    0.00010391
       13001.7     -0.332888   0.000444348      0.666443  -0.000236057      0.666443  -0.000236057     -0.333222   0.000104149
       13061.7     -0.332887   0.000445436      0.666443  -0.000236665      0.666443  -0.000236665     -0.333222   0.000104389
         13122     -0.332886   0.000446526      0.666443  -0.000237275      0.666443  -0.000237275     -0.333222    0.00010463
       13182.6     -0.332885    0.00044762      0.666442  -0.000237886      0.666442  -0.000237886     -0.333221   0.000104871
       13243.4     -0.332884   0.000448716      0.666442  -0.000238499      0.666442  -0.000238499     -0.333221   0.000105112
       13304.5     -0.332883   0.000449815      0.666441  -0.000239114      0.666441  -0.000239114     -0.333221   0.000105354
         13366     -0.332882   0.000450917      0.666441   -0.00023973      0.666441   -0.00023973     -0.333221   0.000105597
       13427.6     -0.332881   0.000452021       0.66644  -0.000240348       0.66644  -0.000240348      -0.33322    0.00010584
       13489.6      -0.33288   0.000453129       0.66644  -0.000240968       0.66644  -0.000240968      -0.33322   0.000106084
       13551.9     -0.332879   0.000454239      0.666439   -0.00024159      0.666439   -0.00024159      -0.33322   0.000106328
       13614.4     -0.332878   0.000455352      0.666439  -0.000242213      0.666439  -0.000242213      -0.33322   0.000106573
       13677.3     -0.332877   0.000456468      0.666438  -0.000242839      0.666438  -0.000242839     -0.333219   0.000106819
       13740.4     -0.332876   0.000457587      0.666438  -0.000243465      0.666438  -0.000243465     -0.333219   0.000107065
       13803.8     -0.332875   0.000458709      0.666437  -0.000244094      0.666437  -0.000244094     -0.333219   0.000107312
       13867.6     -0.332874   0.000459834      0.666437  -0.000244725      0.666437  -0.000244725     -0.333219   0.000107559
       13931.6     -0.332873   0.000460962      0.666436  -0.000245357      0.666436  -0.000245357     -0.333218   0.000107807
       13995.9     -0.332872   0.000462092      0.666436  -0.000245991      0.666436  -0.000245991     -0.333218   0.000108055
       14060.5     -0.332871   0.000463226      0.666435  -0.000246626      0.666435  -0.000246626     -0.333218   0.000108304
       14125.4      -0.33287   0.000464362      0.666435  -0.000247264      0.666435  -0.000247264     -0.333218   0.000108553
       14190.6     -0.332869   0.000465501      0.666434  -0.000247903      0.666434  -0.000247903     -0.333217   0.000108803
       14256.1     -0.332868   0.000466644      0.666434  -0.000248544      0.666434  -0.000248544     -0.333217   0.000109054
       14321.9     -0.332867   0.000467789      0.666433  -0.000249187      0.666433  -0.000249187     -0.333217   0.000109305
         14388     -0.332866   0.000468937      0.666433  -0.000249832      0.666433  -0.000249832     -0.333217   0.000109557
       14454.4     -0.332865   0.000470088      0.666432  -0.000250478      0.666432  -0.000250478     -0.333216   0.000109809
       14521.1     -0.332864   0.000471243      0.666432  -0.000251127      0.666432  -0.000251127     -0.333216   0.000110062
       14588.1     -0.332863     0.0004724      0.666431  -0.000251777      0.666431  -0.000251777     -0.333216   0.000110316
       14655.5     -0.332862    0.00047356      0.666431  -0.000252429      0.666431  -0.000252429     -0.333216    0.00011057
       14723.1     -0.332861   0.000474723       0.66643  -0.000253083       0.66643  -0.000253083     -0.333215   0.000110825
       14791.1      -0.33286   0.000475889       0.66643  -0.000253738       0.66643  -0.000253738     -0.333215    0.00011108
       14859.4     -0.332859   0.000477058      0.666429  -0.000254396      0.666429  -0.000254396     -0.333215   0.000111336
       14927.9     -0.332858    0.00047823      0.666429  -0.000255055      0.666429  -0.000255055     -0.333215   0.000111592
       14996.8     -0.332857   0.000479406      0.666428  -0.000255716      0.666428  -0.000255716     -0.333214   0.000111849
       15066.1     -0.332856   0.000480584      0.666427  -0.000256379      0.666427  -0.000256379     -0.333214   0.000112107
       15135.6     -0.332855   0.000481765      0.666427  -0.000257044      0.666427  -0.000257044     -0.333214   0.000112365
       15205.5     -0.332854    0.00048295      0.666426  -0.000257711      0.666426  -0.000257711     -0.333214   0.000112624
       15275.7     -0.332853   0.000484137      0.666426   -0.00025838      0.666426   -0.00025838     -0.333213   0.000112883
       15346.2     -0.332852   0.000485328      0.666425   -0.00025905      0.666425   -0.00025905     -0.333213   0.000113143
         15417      -0.33285   0.000486521      0.666425  -0.000259723      0.666425  -0.000259723     -0.333213   0.000113404
       15488.2     -0.332849   0.000487718      0.666424  -0.000260397      0.666424  -0.000260397     -0.333213   0.000113665
       15559.7     -0.332848   0.000488918      0.666424  -0.000261073      0.666424  -0.000261073     -0.333212   0.000113927
       15631.5     -0.332847   0.000490121      0.666423  -0.000261752      0.666423  -0.000261752     -0.333212   0.000114189
       15703.6     -0.332846   0.000491327      0.666423  -0.000262432      0.666423  -0.000262432     -0.333212   0.000114452
       15776.1     -0.332845   0.000492536      0.666422  -0.000263114      0.666422  -0.000263114     -0.333211   0.000114716
       15848.9     -0.332844   0.000493748      0.666422  -0.000263798      0.666422  -0.000263798     -0.333211    0.00011498
       15922.1     -0.332843   0.000494964      0.666421  -0.000264484      0.666421  -0.000264484     -0.333211   0.000115245
       15995.6     -0.332842   0.000496183      0.666421  -0.000265171      0.666421  -0.000265171     -0.333211   0.000115511
       16069.4     -0.332841   0.000497404       0.66642  -0.000265861       0.66642  -0.000265861      -0.33321   0.000115777
       16143.6      -0.33284   0.000498629       0.66642  -0.000266553       0.66642  -0.000266553      -0.33321   0.000116043
       16218.1     -0.332839   0.000499858      0.666419  -0.000267246      0.666419  -0.000267246      -0.33321   0.000116311
         16293     -0.332838   0.000501089      0.666419  -0.000267942      0.666419  -0.000267942      -0.33321   0.000116579
       16368.2     -0.332837   0.000502324      0.666418   -0.00026864      0.666418   -0.00026864     -0.333209   0.000116847
       16443.7     -0.332836   0.000503561      0.666417  -0.000269339      0.666417  -0.000269339     -0.333209   0.000117116
       16519.6     -0.332835   0.000504802      0.666417  -0.000270041      0.666417  -0.000270041     -0.333209   0.000117386
       16595.9     -0.332833   0.000506047      0.666416  -0.000270744      0.666416  -0.000270744     -0.333209   0.000117656
       16672.5     -0.332832   0.000507294      0.666416   -0.00027145      0.666416   -0.00027145     -0.333208   0.000117927
       16749.4     -0.332831   0.000508545      0.666415  -0.000272157      0.666415  -0.000272157     -0.333208   0.000118199
       16826.7      -0.33283   0.000509799      0.666415  -0.000272867      0.666415  -0.000272867     -0.333208   0.000118471
       16904.4     -0.332829   0.000511056      0.666414  -0.000273579      0.666414  -0.000273579     -0.333207   0.000118744
       16982.4     -0.332828   0.000512317      0.666414  -0.000274292      0.666414  -0.000274292     -0.333207   0.000119018
       17060.8     -0.332827    0.00051358      0.666413  -0.000275008      0.666413  -0.000275008     -0.333207   0.000119292
       17139.6     -0.332826   0.000514847      0.666413  -0.000275725      0.666413  -0.000275725     -0.333207   0.000119566
       17218.7     -0.332825   0.000516118      0.666412  -0.000276445      0.666412  -0.000276445     -0.333206   0.000119842
       17298.2     -0.332824   0.000517392      0.666411  -0.000277167      0.666411  -0.000277167     -0.333206   0.000120118
         17378     -0.332822   0.000518669      0.666411  -0.000277891      0.666411  -0.000277891     -0.333206   0.000120395
       17458.2     -0.332821   0.000519949       0.66641  -0.000278617       0.66641  -0.000278617     -0.333206   0.000120672
       17538.8      -0.33282   0.000521233       0.66641  -0.000279344       0.66641  -0.000279344     -0.333205    0.00012095
       17619.8     -0.332819    0.00052252      0.666409  -0.000280074      0.666409  -0.000280074     -0.333205   0.000121228
       17701.1     -0.332818    0.00052381      0.666409  -0.000280807      0.666409  -0.000280807     -0.333205   0.000121508
       17782.8     -0.332817   0.000525104      0.666408  -0.000281541      0.666408  -0.000281541     -0.333204   0.000121788
       17864.9     -0.332816   0.000526401      0.666407  -0.000282277      0.666407  -0.000282277     -0.333204   0.000122068
       17947.3     -0.332815   0.000527702      0.666407  -0.000283015      0.666407  -0.000283015     -0.333204   0.000122349
       18030.2     -0.332814   0.000529006      0.666406  -0.000283756      0.666406  -0.000283756     -0.333204   0.000122631
       18113.4     -0.332812   0.000530313      0.666406  -0.000284498      0.666406  -0.000284498     -0.333203   0.000122913
         18197     -0.332811   0.000531624      0.666405  -0.000285243      0.666405  -0.000285243     -0.333203   0.000123197
         18281      -0.33281   0.000532938      0.666405   -0.00028599      0.666405   -0.00028599     -0.333203    0.00012348
       18365.4     -0.332809   0.000534256      0.666404  -0.000286739      0.666404  -0.000286739     -0.333202   0.000123765
       18450.2     -0.332808   0.000535577      0.666404   -0.00028749      0.666404   -0.00028749     -0.333202    0.00012405
       18535.3     -0.332807   0.000536902      0.666403  -0.000288243      0.666403  -0.000288243     -0.333202   0.000124335
       18620.9     -0.332806    0.00053823      0.666402  -0.000288998      0.666402  -0.000288998     -0.333202   0.000124622
       18706.8     -0.332804   0.000539561      0.666402  -0.000289756      0.666402  -0.000289756     -0.333201   0.000124909
       18793.2     -0.332803   0.000540896      0.666401  -0.000290516      0.666401  -0.000290516     -0.333201   0.000125197
       18879.9     -0.332802   0.000542235      0.666401  -0.000291278      0.666401  -0.000291278     -0.333201   0.000125485
       18967.1     -0.332801   0.000543577        0.6664  -0.000292042        0.6664  -0.000292042       -0.3332   0.000125774
       19054.6       -0.3328   0.000544922      0.666399  -0.000292808      0.666399  -0.000292808       -0.3332   0.000126064
       19142.6     -0.332799   0.000546271      0.666399  -0.000293576      0.666399  -0.000293576       -0.3332   0.000126354
       19230.9     -0.332797   0.000547624      0.666398  -0.000294347      0.666398  -0.000294347       -0.3332   0.000126645
       19319.7     -0.332796    0.00054898      0.666398   -0.00029512      0.666398   -0.00029512     -0.333199   0.000126937
       19408.9     -0.332795    0.00055034      0.666397  -0.000295895      0.666397  -0.000295895     -0.333199   0.000127229
       19498.4     -0.332794   0.000551703      0.666397  -0.000296672      0.666397  -0.000296672     -0.333199   0.000127522
       19588.4     -0.332793    0.00055307      0.666396  -0.000297452      0.666396  -0.000297452     -0.333198   0.000127816
       19678.9     -0.332792   0.000554441      0.666395  -0.000298234      0.666395  -0.000298234     -0.333198    0.00012811
       19769.7      -0.33279   0.000555815      0.666395  -0.000299018      0.666395  -0.000299018     -0.333198   0.000128405
       19860.9     -0.332789   0.000557192      0.666394  -0.000299804      0.666394  -0.000299804     -0.333198   0.000128701
       19952.6     -0.332788   0.000558573      0.666394  -0.000300593      0.666394  -0.000300593     -0.333197   0.000128997
       20044.7     -0.332787   0.000559958      0.666393  -0.000301383      0.666393  -0.000301383     -0.333197   0.000129294
       20137.2     -0.332786   0.000561347      0.666392  -0.000302176      0.666392  -0.000302176     -0.333197   0.000129592
       20230.2     -0.332784   0.000562739      0.666392  -0.000302972      0.666392  -0.000302972     -0.333196   0.000129891
       20323.6     -0.332783   0.000564135      0.666391  -0.000303769      0.666391  -0.000303769     -0.333196    0.00013019
