! NPort=2 DATA=4501 NOISE=0 GROUPDELAY=0 COMPLEX_DATAFORMAT=RI
! NumOfBlock=1 NumOfParam=0
!
! .MODEL Smodel S TSTONEFILE=./link_rx/link_rx_l3/lr10000_10000000000000dec_2_5.s2p TYPE=S
!   -- The above .MODEL line can be used for the S element in the netlist.
!
!
# Hz S RI R             50
         10000   0.000159151   0.000143242 -1.85518e-005 -3.04783e-005 -1.85518e-005 -3.04783e-005     -0.999112   0.000885141
       10046.2   0.000159479   0.000143572 -1.85946e-005 -3.05761e-005 -1.85946e-005 -3.05761e-005      -0.99911   0.000887326
       10092.5   0.000159808   0.000143902 -1.86375e-005 -3.06743e-005 -1.86375e-005 -3.06743e-005     -0.999108   0.000889516
       10139.1   0.000160137   0.000144234 -1.86806e-005 -3.07728e-005 -1.86806e-005 -3.07728e-005     -0.999106   0.000891713
       10185.9   0.000160468   0.000144566 -1.87237e-005 -3.08717e-005 -1.87237e-005 -3.08717e-005     -0.999104   0.000893915
       10232.9   0.000160799     0.0001449  -1.8767e-005 -3.09709e-005  -1.8767e-005 -3.09709e-005     -0.999102   0.000896122
       10280.2   0.000161131   0.000145233 -1.88103e-005 -3.10705e-005 -1.88103e-005 -3.10705e-005       -0.9991   0.000898336
       10327.6   0.000161464   0.000145568 -1.88537e-005 -3.11705e-005 -1.88537e-005 -3.11705e-005     -0.999098   0.000900555
       10375.3   0.000161797   0.000145904 -1.88973e-005 -3.12708e-005 -1.88973e-005 -3.12708e-005     -0.999097    0.00090278
       10423.2   0.000162132    0.00014624 -1.89409e-005 -3.13715e-005 -1.89409e-005 -3.13715e-005     -0.999095   0.000905011
       10471.3   0.000162467   0.000146577 -1.89847e-005 -3.14725e-005 -1.89847e-005 -3.14725e-005     -0.999093   0.000907248
       10519.6   0.000162802   0.000146915 -1.90285e-005 -3.15739e-005 -1.90285e-005 -3.15739e-005     -0.999091   0.000909491
       10568.2   0.000163139   0.000147253 -1.90724e-005 -3.16757e-005 -1.90724e-005 -3.16757e-005     -0.999089   0.000911739
         10617   0.000163476   0.000147592 -1.91165e-005 -3.17778e-005 -1.91165e-005 -3.17778e-005     -0.999087   0.000913993
         10666   0.000163814   0.000147933 -1.91606e-005 -3.18803e-005 -1.91606e-005 -3.18803e-005     -0.999085   0.000916254
       10715.2   0.000164153   0.000148273 -1.92049e-005 -3.19832e-005 -1.92049e-005 -3.19832e-005     -0.999083    0.00091852
       10764.7   0.000164493   0.000148615 -1.92492e-005 -3.20865e-005 -1.92492e-005 -3.20865e-005     -0.999081   0.000920792
       10814.3   0.000164833   0.000148958 -1.92937e-005 -3.21901e-005 -1.92937e-005 -3.21901e-005     -0.999079    0.00092307
       10864.3   0.000165174   0.000149301 -1.93383e-005 -3.22941e-005 -1.93383e-005 -3.22941e-005     -0.999077   0.000925354
       10914.4   0.000165516   0.000149645 -1.93829e-005 -3.23985e-005 -1.93829e-005 -3.23985e-005     -0.999075   0.000927644
       10964.8   0.000165859    0.00014999 -1.94277e-005 -3.25033e-005 -1.94277e-005 -3.25033e-005     -0.999073    0.00092994
       11015.4   0.000166203   0.000150335 -1.94726e-005 -3.26084e-005 -1.94726e-005 -3.26084e-005     -0.999071   0.000932242
       11066.2   0.000166547   0.000150682 -1.95175e-005 -3.27139e-005 -1.95175e-005 -3.27139e-005     -0.999069    0.00093455
       11117.3   0.000166892   0.000151029 -1.95626e-005 -3.28198e-005 -1.95626e-005 -3.28198e-005     -0.999067   0.000936864
       11168.6   0.000167238   0.000151377 -1.96078e-005 -3.29261e-005 -1.96078e-005 -3.29261e-005     -0.999065   0.000939184
       11220.2   0.000167585   0.000151726 -1.96531e-005 -3.30328e-005 -1.96531e-005 -3.30328e-005     -0.999063    0.00094151
         11272   0.000167932   0.000152075 -1.96985e-005 -3.31399e-005 -1.96985e-005 -3.31399e-005     -0.999061   0.000943843
         11324   0.000168281   0.000152426  -1.9744e-005 -3.32473e-005  -1.9744e-005 -3.32473e-005     -0.999059   0.000946181
       11376.3    0.00016863   0.000152777 -1.97896e-005 -3.33552e-005 -1.97896e-005 -3.33552e-005     -0.999057   0.000948526
       11428.8    0.00016898   0.000153129 -1.98353e-005 -3.34634e-005 -1.98353e-005 -3.34634e-005     -0.999055   0.000950877
       11481.5    0.00016933   0.000153482 -1.98811e-005 -3.35721e-005 -1.98811e-005 -3.35721e-005     -0.999053   0.000953234
       11534.5   0.000169682   0.000153836  -1.9927e-005 -3.36811e-005  -1.9927e-005 -3.36811e-005     -0.999051   0.000955597
       11587.8   0.000170034    0.00015419 -1.99731e-005 -3.37905e-005 -1.99731e-005 -3.37905e-005     -0.999049   0.000957966
       11641.3   0.000170387   0.000154545 -2.00192e-005 -3.39003e-005 -2.00192e-005 -3.39003e-005     -0.999047   0.000960342
         11695   0.000170741   0.000154902 -2.00654e-005 -3.40106e-005 -2.00654e-005 -3.40106e-005     -0.999045   0.000962724
         11749   0.000171096   0.000155258 -2.01118e-005 -3.41212e-005 -2.01118e-005 -3.41212e-005     -0.999043   0.000965112
       11803.2   0.000171452   0.000155616 -2.01582e-005 -3.42322e-005 -2.01582e-005 -3.42322e-005     -0.999041   0.000967506
       11857.7   0.000171808   0.000155975 -2.02048e-005 -3.43436e-005 -2.02048e-005 -3.43436e-005     -0.999039   0.000969907
       11912.4   0.000172165   0.000156334 -2.02515e-005 -3.44555e-005 -2.02515e-005 -3.44555e-005     -0.999037   0.000972314
       11967.4   0.000172523   0.000156694 -2.02983e-005 -3.45677e-005 -2.02983e-005 -3.45677e-005     -0.999035   0.000974727
       12022.6   0.000172882   0.000157056 -2.03452e-005 -3.46804e-005 -2.03452e-005 -3.46804e-005     -0.999032   0.000977147
       12078.1   0.000173242   0.000157417 -2.03922e-005 -3.47935e-005 -2.03922e-005 -3.47935e-005      -0.99903   0.000979573
       12133.9   0.000173602    0.00015778 -2.04393e-005  -3.4907e-005 -2.04393e-005  -3.4907e-005     -0.999028   0.000982005
       12189.9   0.000173963   0.000158144 -2.04865e-005 -3.50209e-005 -2.04865e-005 -3.50209e-005     -0.999026   0.000984444
       12246.2   0.000174326   0.000158508 -2.05338e-005 -3.51352e-005 -2.05338e-005 -3.51352e-005     -0.999024   0.000986889
       12302.7   0.000174688   0.000158873 -2.05812e-005 -3.52499e-005 -2.05812e-005 -3.52499e-005     -0.999022   0.000989341
       12359.5   0.000175052   0.000159239 -2.06288e-005 -3.53651e-005 -2.06288e-005 -3.53651e-005      -0.99902   0.000991799
       12416.5   0.000175417   0.000159606 -2.06764e-005 -3.54806e-005 -2.06764e-005 -3.54806e-005     -0.999018   0.000994264
       12473.8   0.000175782   0.000159974 -2.07242e-005 -3.55966e-005 -2.07242e-005 -3.55966e-005     -0.999016   0.000996735
       12531.4   0.000176149   0.000160343 -2.07721e-005 -3.57131e-005 -2.07721e-005 -3.57131e-005     -0.999014   0.000999213
       12589.3   0.000176516   0.000160712 -2.08201e-005 -3.58299e-005 -2.08201e-005 -3.58299e-005     -0.999011     0.0010017
       12647.4   0.000176884   0.000161083 -2.08682e-005 -3.59472e-005 -2.08682e-005 -3.59472e-005     -0.999009    0.00100419
       12705.7   0.000177252   0.000161454 -2.09164e-005 -3.60649e-005 -2.09164e-005 -3.60649e-005     -0.999007    0.00100669
       12764.4   0.000177622   0.000161826 -2.09647e-005 -3.61831e-005 -2.09647e-005 -3.61831e-005     -0.999005    0.00100919
       12823.3   0.000177993   0.000162199 -2.10132e-005 -3.63016e-005 -2.10132e-005 -3.63016e-005     -0.999003     0.0010117
       12882.5   0.000178364   0.000162572 -2.10617e-005 -3.64206e-005 -2.10617e-005 -3.64206e-005     -0.999001    0.00101422
         12942   0.000178736   0.000162947 -2.11104e-005 -3.65401e-005 -2.11104e-005 -3.65401e-005     -0.998999    0.00101674
       13001.7   0.000179109   0.000163322 -2.11591e-005   -3.666e-005 -2.11591e-005   -3.666e-005     -0.998996    0.00101927
       13061.7   0.000179483   0.000163699  -2.1208e-005 -3.67803e-005  -2.1208e-005 -3.67803e-005     -0.998994    0.00102181
         13122   0.000179858   0.000164076  -2.1257e-005 -3.69011e-005  -2.1257e-005 -3.69011e-005     -0.998992    0.00102435
       13182.6   0.000180233   0.000164454 -2.13061e-005 -3.70223e-005 -2.13061e-005 -3.70223e-005      -0.99899     0.0010269
       13243.4    0.00018061   0.000164833 -2.13554e-005  -3.7144e-005 -2.13554e-005  -3.7144e-005     -0.998988    0.00102946
       13304.5   0.000180987   0.000165213 -2.14047e-005 -3.72661e-005 -2.14047e-005 -3.72661e-005     -0.998986    0.00103203
         13366   0.000181365   0.000165594 -2.14542e-005 -3.73886e-005 -2.14542e-005 -3.73886e-005     -0.998983     0.0010346
       13427.6   0.000181744   0.000165975 -2.15038e-005 -3.75116e-005 -2.15038e-005 -3.75116e-005     -0.998981    0.00103717
       13489.6   0.000182124   0.000166358 -2.15534e-005 -3.76351e-005 -2.15534e-005 -3.76351e-005     -0.998979    0.00103976
       13551.9   0.000182505   0.000166741 -2.16032e-005  -3.7759e-005 -2.16032e-005  -3.7759e-005     -0.998977    0.00104235
       13614.4   0.000182887   0.000167125 -2.16532e-005 -3.78834e-005 -2.16532e-005 -3.78834e-005     -0.998975    0.00104495
       13677.3   0.000183269    0.00016751 -2.17032e-005 -3.80082e-005 -2.17032e-005 -3.80082e-005     -0.998972    0.00104755
       13740.4   0.000183653   0.000167896 -2.17533e-005 -3.81335e-005 -2.17533e-005 -3.81335e-005      -0.99897    0.00105017
       13803.8   0.000184037   0.000168283 -2.18036e-005 -3.82593e-005 -2.18036e-005 -3.82593e-005     -0.998968    0.00105279
       13867.6   0.000184422   0.000168671  -2.1854e-005 -3.83855e-005  -2.1854e-005 -3.83855e-005     -0.998966    0.00105541
       13931.6   0.000184808   0.000169059 -2.19045e-005 -3.85122e-005 -2.19045e-005 -3.85122e-005     -0.998963    0.00105805
       13995.9   0.000185195   0.000169449 -2.19551e-005 -3.86394e-005 -2.19551e-005 -3.86394e-005     -0.998961    0.00106069
       14060.5   0.000185583   0.000169839 -2.20059e-005  -3.8767e-005 -2.20059e-005  -3.8767e-005     -0.998959    0.00106333
       14125.4   0.000185972   0.000170231 -2.20567e-005 -3.88951e-005 -2.20567e-005 -3.88951e-005     -0.998957    0.00106599
       14190.6   0.000186361   0.000170623 -2.21077e-005 -3.90237e-005 -2.21077e-005 -3.90237e-005     -0.998954    0.00106865
       14256.1   0.000186752   0.000171016 -2.21588e-005 -3.91527e-005 -2.21588e-005 -3.91527e-005     -0.998952    0.00107132
       14321.9   0.000187143    0.00017141   -2.221e-005 -3.92822e-005   -2.221e-005 -3.92822e-005      -0.99895    0.00107399
         14388   0.000187536   0.000171805 -2.22613e-005 -3.94122e-005 -2.22613e-005 -3.94122e-005     -0.998948    0.00107667
       14454.4   0.000187929   0.000172201 -2.23128e-005 -3.95427e-005 -2.23128e-005 -3.95427e-005     -0.998945    0.00107936
       14521.1   0.000188323   0.000172598 -2.23643e-005 -3.96737e-005 -2.23643e-005 -3.96737e-005     -0.998943    0.00108206
       14588.1   0.000188718   0.000172995  -2.2416e-005 -3.98052e-005  -2.2416e-005 -3.98052e-005     -0.998941    0.00108476
       14655.5   0.000189114   0.000173394 -2.24678e-005 -3.99371e-005 -2.24678e-005 -3.99371e-005     -0.998939    0.00108747
       14723.1    0.00018951   0.000173794 -2.25197e-005 -4.00695e-005 -2.25197e-005 -4.00695e-005     -0.998936    0.00109019
       14791.1   0.000189908   0.000174194 -2.25718e-005 -4.02025e-005 -2.25718e-005 -4.02025e-005     -0.998934    0.00109292
       14859.4   0.000190307   0.000174595  -2.2624e-005 -4.03359e-005  -2.2624e-005 -4.03359e-005     -0.998932    0.00109565
       14927.9   0.000190706   0.000174998 -2.26763e-005 -4.04698e-005 -2.26763e-005 -4.04698e-005     -0.998929    0.00109839
       14996.8   0.000191107   0.000175401 -2.27287e-005 -4.06042e-005 -2.27287e-005 -4.06042e-005     -0.998927    0.00110114
       15066.1   0.000191508   0.000175805 -2.27812e-005 -4.07391e-005 -2.27812e-005 -4.07391e-005     -0.998925    0.00110389
       15135.6    0.00019191    0.00017621 -2.28339e-005 -4.08745e-005 -2.28339e-005 -4.08745e-005     -0.998922    0.00110666
       15205.5   0.000192313   0.000176616 -2.28866e-005 -4.10104e-005 -2.28866e-005 -4.10104e-005      -0.99892    0.00110943
       15275.7   0.000192718   0.000177023 -2.29395e-005 -4.11468e-005 -2.29395e-005 -4.11468e-005     -0.998918     0.0011122
       15346.2   0.000193123   0.000177431 -2.29926e-005 -4.12838e-005 -2.29926e-005 -4.12838e-005     -0.998915    0.00111499
         15417   0.000193529    0.00017784 -2.30457e-005 -4.14212e-005 -2.30457e-005 -4.14212e-005     -0.998913    0.00111778
       15488.2   0.000193935    0.00017825  -2.3099e-005 -4.15592e-005  -2.3099e-005 -4.15592e-005     -0.998911    0.00112058
       15559.7   0.000194343    0.00017866 -2.31524e-005 -4.16976e-005 -2.31524e-005 -4.16976e-005     -0.998908    0.00112338
       15631.5   0.000194752   0.000179072 -2.32059e-005 -4.18366e-005 -2.32059e-005 -4.18366e-005     -0.998906     0.0011262
       15703.6   0.000195162   0.000179485 -2.32595e-005 -4.19761e-005 -2.32595e-005 -4.19761e-005     -0.998904    0.00112902
       15776.1   0.000195572   0.000179898 -2.33133e-005 -4.21161e-005 -2.33133e-005 -4.21161e-005     -0.998901    0.00113185
       15848.9   0.000195984   0.000180313 -2.33672e-005 -4.22567e-005 -2.33672e-005 -4.22567e-005     -0.998899    0.00113469
       15922.1   0.000196396   0.000180728 -2.34212e-005 -4.23977e-005 -2.34212e-005 -4.23977e-005     -0.998896    0.00113753
       15995.6    0.00019681   0.000181144 -2.34754e-005 -4.25393e-005 -2.34754e-005 -4.25393e-005     -0.998894    0.00114038
       16069.4   0.000197224   0.000181562 -2.35296e-005 -4.26814e-005 -2.35296e-005 -4.26814e-005     -0.998892    0.00114324
       16143.6    0.00019764    0.00018198  -2.3584e-005 -4.28241e-005  -2.3584e-005 -4.28241e-005     -0.998889    0.00114611
       16218.1   0.000198056   0.000182399 -2.36385e-005 -4.29672e-005 -2.36385e-005 -4.29672e-005     -0.998887    0.00114898
         16293   0.000198473    0.00018282 -2.36932e-005  -4.3111e-005 -2.36932e-005  -4.3111e-005     -0.998884    0.00115187
       16368.2   0.000198891   0.000183241  -2.3748e-005 -4.32552e-005  -2.3748e-005 -4.32552e-005     -0.998882    0.00115476
       16443.7    0.00019931   0.000183663 -2.38029e-005    -4.34e-005 -2.38029e-005    -4.34e-005     -0.998879    0.00115765
       16519.6   0.000199731   0.000184086 -2.38579e-005 -4.35453e-005 -2.38579e-005 -4.35453e-005     -0.998877    0.00116056
       16595.9   0.000200152    0.00018451 -2.39131e-005 -4.36912e-005 -2.39131e-005 -4.36912e-005     -0.998875    0.00116347
       16672.5   0.000200574   0.000184936 -2.39684e-005 -4.38376e-005 -2.39684e-005 -4.38376e-005     -0.998872     0.0011664
       16749.4   0.000200997   0.000185362 -2.40238e-005 -4.39846e-005 -2.40238e-005 -4.39846e-005      -0.99887    0.00116932
       16826.7   0.000201421   0.000185789 -2.40793e-005 -4.41321e-005 -2.40793e-005 -4.41321e-005     -0.998867    0.00117226
       16904.4   0.000201846   0.000186217  -2.4135e-005 -4.42802e-005  -2.4135e-005 -4.42802e-005     -0.998865    0.00117521
       16982.4   0.000202271   0.000186646 -2.41908e-005 -4.44288e-005 -2.41908e-005 -4.44288e-005     -0.998862    0.00117816
       17060.8   0.000202698   0.000187076 -2.42467e-005  -4.4578e-005 -2.42467e-005  -4.4578e-005      -0.99886    0.00118112
       17139.6   0.000203126   0.000187507 -2.43028e-005 -4.47278e-005 -2.43028e-005 -4.47278e-005     -0.998857    0.00118409
       17218.7   0.000203555   0.000187939  -2.4359e-005 -4.48781e-005  -2.4359e-005 -4.48781e-005     -0.998855    0.00118707
       17298.2   0.000203985   0.000188372 -2.44153e-005  -4.5029e-005 -2.44153e-005  -4.5029e-005     -0.998852    0.00119005
         17378   0.000204416   0.000188806 -2.44718e-005 -4.51804e-005 -2.44718e-005 -4.51804e-005      -0.99885    0.00119304
       17458.2   0.000204847   0.000189241 -2.45284e-005 -4.53324e-005 -2.45284e-005 -4.53324e-005     -0.998847    0.00119604
       17538.8    0.00020528   0.000189677 -2.45851e-005  -4.5485e-005 -2.45851e-005  -4.5485e-005     -0.998845    0.00119905
       17619.8   0.000205714   0.000190114 -2.46419e-005 -4.56381e-005 -2.46419e-005 -4.56381e-005     -0.998842    0.00120207
       17701.1   0.000206149   0.000190552 -2.46989e-005 -4.57919e-005 -2.46989e-005 -4.57919e-005      -0.99884     0.0012051
       17782.8   0.000206584   0.000190991  -2.4756e-005 -4.59462e-005  -2.4756e-005 -4.59462e-005     -0.998837    0.00120813
       17864.9   0.000207021   0.000191431 -2.48133e-005  -4.6101e-005 -2.48133e-005  -4.6101e-005     -0.998835    0.00121117
       17947.3   0.000207459   0.000191872 -2.48707e-005 -4.62565e-005 -2.48707e-005 -4.62565e-005     -0.998832    0.00121422
       18030.2   0.000207898   0.000192314 -2.49282e-005 -4.64126e-005 -2.49282e-005 -4.64126e-005      -0.99883    0.00121728
       18113.4   0.000208337   0.000192757 -2.49858e-005 -4.65692e-005 -2.49858e-005 -4.65692e-005     -0.998827    0.00122034
         18197   0.000208778   0.000193202 -2.50436e-005 -4.67264e-005 -2.50436e-005 -4.67264e-005     -0.998825    0.00122342
         18281    0.00020922   0.000193647 -2.51015e-005 -4.68843e-005 -2.51015e-005 -4.68843e-005     -0.998822     0.0012265
       18365.4   0.000209663   0.000194093 -2.51596e-005 -4.70427e-005 -2.51596e-005 -4.70427e-005      -0.99882    0.00122959
       18450.2   0.000210106    0.00019454 -2.52178e-005 -4.72017e-005 -2.52178e-005 -4.72017e-005     -0.998817    0.00123269
       18535.3   0.000210551   0.000194988 -2.52761e-005 -4.73613e-005 -2.52761e-005 -4.73613e-005     -0.998814     0.0012358
       18620.9   0.000210997   0.000195437 -2.53346e-005 -4.75215e-005 -2.53346e-005 -4.75215e-005     -0.998812    0.00123892
       18706.8   0.000211444   0.000195888 -2.53932e-005 -4.76823e-005 -2.53932e-005 -4.76823e-005     -0.998809    0.00124204
       18793.2   0.000211892   0.000196339 -2.54519e-005 -4.78438e-005 -2.54519e-005 -4.78438e-005     -0.998807    0.00124517
       18879.9   0.000212341   0.000196791 -2.55108e-005 -4.80058e-005 -2.55108e-005 -4.80058e-005     -0.998804    0.00124831
       18967.1    0.00021279   0.000197245 -2.55698e-005 -4.81684e-005 -2.55698e-005 -4.81684e-005     -0.998801    0.00125146
       19054.6   0.000213241   0.000197699 -2.56289e-005 -4.83317e-005 -2.56289e-005 -4.83317e-005     -0.998799    0.00125462
       19142.6   0.000213693   0.000198155 -2.56882e-005 -4.84956e-005 -2.56882e-005 -4.84956e-005     -0.998796    0.00125779
       19230.9   0.000214146   0.000198611 -2.57476e-005 -4.86601e-005 -2.57476e-005 -4.86601e-005     -0.998794    0.00126097
       19319.7     0.0002146   0.000199069 -2.58072e-005 -4.88252e-005 -2.58072e-005 -4.88252e-005     -0.998791    0.00126415
       19408.9   0.000215055   0.000199528 -2.58669e-005  -4.8991e-005 -2.58669e-005  -4.8991e-005     -0.998788    0.00126734
       19498.4   0.000215511   0.000199987 -2.59267e-005 -4.91573e-005 -2.59267e-005 -4.91573e-005     -0.998786    0.00127054
       19588.4   0.000215969   0.000200448 -2.59867e-005 -4.93243e-005 -2.59867e-005 -4.93243e-005     -0.998783    0.00127375
       19678.9   0.000216427    0.00020091 -2.60468e-005  -4.9492e-005 -2.60468e-005  -4.9492e-005      -0.99878    0.00127697
       19769.7   0.000216886   0.000201373 -2.61071e-005 -4.96602e-005 -2.61071e-005 -4.96602e-005     -0.998778     0.0012802
       19860.9   0.000217346   0.000201837 -2.61675e-005 -4.98291e-005 -2.61675e-005 -4.98291e-005     -0.998775    0.00128344
       19952.6   0.000217808   0.000202302  -2.6228e-005 -4.99987e-005  -2.6228e-005 -4.99987e-005     -0.998772    0.00128668
       20044.7    0.00021827   0.000202768 -2.62887e-005 -5.01689e-005 -2.62887e-005 -5.01689e-005      -0.99877    0.00128993
       20137.2   0.000218734   0.000203235 -2.63495e-005 -5.03397e-005 -2.63495e-005 -5.03397e-005     -0.998767     0.0012932
       20230.2   0.000219198   0.000203703 -2.64105e-005 -5.05112e-005 -2.64105e-005 -5.05112e-005     -0.998764    0.00129647
       20323.6   0.000219664   0.000204172 -2.64716e-005 -5.06833e-005 -2.64716e-005 -5.06833e-005     -0.998762    0.00129975
