! NPort=2 DATA=4501 NOISE=0 GROUPDELAY=0 COMPLEX_DATAFORMAT=RI
! NumOfBlock=1 NumOfParam=0
!
! .MODEL Smodel S TSTONEFILE=./link_rx/link_rx_l3/lr10000_10000000000000dec_4_1.s2p TYPE=S
!   -- The above .MODEL line can be used for the S element in the netlist.
!
!
# Hz S RI R             50
         10000   0.000221684   0.000205566 -4.45847e-008 -5.81696e-008 -4.45847e-008 -5.81696e-008     -0.999112   0.000885119
       10046.2   0.000222157    0.00020604 -4.46912e-008 -5.83355e-008 -4.46912e-008 -5.83355e-008      -0.99911   0.000887304
       10092.5   0.000222631   0.000206514  -4.4798e-008 -5.85019e-008  -4.4798e-008 -5.85019e-008     -0.999108   0.000889494
       10139.1   0.000223106    0.00020699 -4.49051e-008 -5.86688e-008 -4.49051e-008 -5.86688e-008     -0.999106    0.00089169
       10185.9   0.000223582   0.000207467 -4.50125e-008 -5.88363e-008 -4.50125e-008 -5.88363e-008     -0.999104   0.000893892
       10232.9   0.000224059   0.000207945 -4.51201e-008 -5.90043e-008 -4.51201e-008 -5.90043e-008     -0.999102     0.0008961
       10280.2   0.000224537   0.000208424  -4.5228e-008 -5.91728e-008  -4.5228e-008 -5.91728e-008       -0.9991   0.000898313
       10327.6   0.000225017   0.000208905 -4.53362e-008 -5.93419e-008 -4.53362e-008 -5.93419e-008     -0.999098   0.000900533
       10375.3   0.000225497   0.000209386 -4.54447e-008 -5.95115e-008 -4.54447e-008 -5.95115e-008     -0.999097   0.000902758
       10423.2   0.000225978   0.000209868 -4.55534e-008 -5.96816e-008 -4.55534e-008 -5.96816e-008     -0.999095   0.000904988
       10471.3   0.000226461   0.000210352 -4.56625e-008 -5.98523e-008 -4.56625e-008 -5.98523e-008     -0.999093   0.000907225
       10519.6   0.000226945   0.000210837 -4.57718e-008 -6.00235e-008 -4.57718e-008 -6.00235e-008     -0.999091   0.000909468
       10568.2    0.00022743   0.000211322 -4.58814e-008 -6.01953e-008 -4.58814e-008 -6.01953e-008     -0.999089   0.000911716
         10617   0.000227916   0.000211809 -4.59913e-008 -6.03676e-008 -4.59913e-008 -6.03676e-008     -0.999087    0.00091397
         10666   0.000228403   0.000212297 -4.61014e-008 -6.05404e-008 -4.61014e-008 -6.05404e-008     -0.999085   0.000916231
       10715.2   0.000228891   0.000212786 -4.62119e-008 -6.07138e-008 -4.62119e-008 -6.07138e-008     -0.999083   0.000918497
       10764.7    0.00022938   0.000213277 -4.63226e-008 -6.08877e-008 -4.63226e-008 -6.08877e-008     -0.999081   0.000920769
       10814.3    0.00022987   0.000213768 -4.64337e-008 -6.10622e-008 -4.64337e-008 -6.10622e-008     -0.999079   0.000923047
       10864.3   0.000230362   0.000214261  -4.6545e-008 -6.12373e-008  -4.6545e-008 -6.12373e-008     -0.999077   0.000925331
       10914.4   0.000230855   0.000214754 -4.66566e-008 -6.14129e-008 -4.66566e-008 -6.14129e-008     -0.999075   0.000927621
       10964.8   0.000231349   0.000215249 -4.67685e-008  -6.1589e-008 -4.67685e-008  -6.1589e-008     -0.999073   0.000929916
       11015.4   0.000231843   0.000215745 -4.68807e-008 -6.17657e-008 -4.68807e-008 -6.17657e-008     -0.999071   0.000932218
       11066.2    0.00023234   0.000216242 -4.69932e-008  -6.1943e-008 -4.69932e-008  -6.1943e-008     -0.999069   0.000934526
       11117.3   0.000232837    0.00021674 -4.71059e-008 -6.21208e-008 -4.71059e-008 -6.21208e-008     -0.999067    0.00093684
       11168.6   0.000233335    0.00021724  -4.7219e-008 -6.22992e-008  -4.7219e-008 -6.22992e-008     -0.999065   0.000939161
       11220.2   0.000233835    0.00021774 -4.73324e-008 -6.24782e-008 -4.73324e-008 -6.24782e-008     -0.999063   0.000941487
         11272   0.000234335   0.000218242 -4.74461e-008 -6.26578e-008 -4.74461e-008 -6.26578e-008     -0.999061   0.000943819
         11324   0.000234837   0.000218745   -4.756e-008 -6.28379e-008   -4.756e-008 -6.28379e-008     -0.999059   0.000946157
       11376.3    0.00023534   0.000219249 -4.76743e-008 -6.30186e-008 -4.76743e-008 -6.30186e-008     -0.999057   0.000948502
       11428.8   0.000235844   0.000219754 -4.77888e-008 -6.31998e-008 -4.77888e-008 -6.31998e-008     -0.999055   0.000950853
       11481.5    0.00023635    0.00022026 -4.79037e-008 -6.33816e-008 -4.79037e-008 -6.33816e-008     -0.999053    0.00095321
       11534.5   0.000236856   0.000220768 -4.80188e-008 -6.35641e-008 -4.80188e-008 -6.35641e-008     -0.999051   0.000955573
       11587.8   0.000237364   0.000221277 -4.81343e-008 -6.37471e-008 -4.81343e-008 -6.37471e-008     -0.999049   0.000957942
       11641.3   0.000237872   0.000221786 -4.82501e-008 -6.39306e-008 -4.82501e-008 -6.39306e-008     -0.999047   0.000960318
         11695   0.000238382   0.000222297 -4.83661e-008 -6.41148e-008 -4.83661e-008 -6.41148e-008     -0.999045   0.000962699
         11749   0.000238893    0.00022281 -4.84825e-008 -6.42996e-008 -4.84825e-008 -6.42996e-008     -0.999043   0.000965087
       11803.2   0.000239406   0.000223323 -4.85992e-008 -6.44849e-008 -4.85992e-008 -6.44849e-008     -0.999041   0.000967482
       11857.7   0.000239919   0.000223837 -4.87162e-008 -6.46708e-008 -4.87162e-008 -6.46708e-008     -0.999039   0.000969882
       11912.4   0.000240434   0.000224353 -4.88335e-008 -6.48573e-008 -4.88335e-008 -6.48573e-008     -0.999037   0.000972289
       11967.4    0.00024095    0.00022487 -4.89511e-008 -6.50445e-008 -4.89511e-008 -6.50445e-008     -0.999035   0.000974703
       12022.6   0.000241467   0.000225388  -4.9069e-008 -6.52322e-008  -4.9069e-008 -6.52322e-008     -0.999032   0.000977122
       12078.1   0.000241985   0.000225907 -4.91872e-008 -6.54205e-008 -4.91872e-008 -6.54205e-008      -0.99903   0.000979548
       12133.9   0.000242504   0.000226428 -4.93058e-008 -6.56094e-008 -4.93058e-008 -6.56094e-008     -0.999028   0.000981981
       12189.9   0.000243025    0.00022695 -4.94246e-008 -6.57989e-008 -4.94246e-008 -6.57989e-008     -0.999026   0.000984419
       12246.2   0.000243547   0.000227473 -4.95438e-008 -6.59891e-008 -4.95438e-008 -6.59891e-008     -0.999024   0.000986865
       12302.7    0.00024407   0.000227997 -4.96633e-008 -6.61798e-008 -4.96633e-008 -6.61798e-008     -0.999022   0.000989316
       12359.5   0.000244594   0.000228522 -4.97831e-008 -6.63711e-008 -4.97831e-008 -6.63711e-008      -0.99902   0.000991775
       12416.5   0.000245119   0.000229048 -4.99032e-008 -6.65631e-008 -4.99032e-008 -6.65631e-008     -0.999018   0.000994239
       12473.8   0.000245646   0.000229576 -5.00236e-008 -6.67557e-008 -5.00236e-008 -6.67557e-008     -0.999016    0.00099671
       12531.4   0.000246174   0.000230105 -5.01444e-008 -6.69489e-008 -5.01444e-008 -6.69489e-008     -0.999014   0.000999188
       12589.3   0.000246703   0.000230635 -5.02655e-008 -6.71427e-008 -5.02655e-008 -6.71427e-008     -0.999011    0.00100167
       12647.4   0.000247233   0.000231167 -5.03869e-008 -6.73371e-008 -5.03869e-008 -6.73371e-008     -0.999009    0.00100416
       12705.7   0.000247764   0.000231699 -5.05086e-008 -6.75322e-008 -5.05086e-008 -6.75322e-008     -0.999007    0.00100666
       12764.4   0.000248297   0.000232233 -5.06306e-008 -6.77278e-008 -5.06306e-008 -6.77278e-008     -0.999005    0.00100916
       12823.3   0.000248831   0.000232768  -5.0753e-008 -6.79241e-008  -5.0753e-008 -6.79241e-008     -0.999003    0.00101167
       12882.5   0.000249366   0.000233304 -5.08757e-008 -6.81211e-008 -5.08757e-008 -6.81211e-008     -0.999001    0.00101419
         12942   0.000249902   0.000233842 -5.09987e-008 -6.83186e-008 -5.09987e-008 -6.83186e-008     -0.998999    0.00101672
       13001.7    0.00025044   0.000234381 -5.11221e-008 -6.85168e-008 -5.11221e-008 -6.85168e-008     -0.998996    0.00101925
       13061.7   0.000250979   0.000234921 -5.12457e-008 -6.87157e-008 -5.12457e-008 -6.87157e-008     -0.998994    0.00102178
         13122   0.000251519   0.000235462 -5.13697e-008 -6.89151e-008 -5.13697e-008 -6.89151e-008     -0.998992    0.00102433
       13182.6    0.00025206   0.000236004 -5.14941e-008 -6.91153e-008 -5.14941e-008 -6.91153e-008      -0.99899    0.00102688
       13243.4   0.000252603   0.000236548 -5.16188e-008  -6.9316e-008 -5.16188e-008  -6.9316e-008     -0.998988    0.00102944
       13304.5   0.000253147   0.000237093 -5.17438e-008 -6.95174e-008 -5.17438e-008 -6.95174e-008     -0.998986      0.001032
         13366   0.000253692   0.000237639 -5.18691e-008 -6.97195e-008 -5.18691e-008 -6.97195e-008     -0.998983    0.00103457
       13427.6   0.000254238   0.000238187 -5.19948e-008 -6.99222e-008 -5.19948e-008 -6.99222e-008     -0.998981    0.00103715
       13489.6   0.000254786   0.000238736 -5.21208e-008 -7.01255e-008 -5.21208e-008 -7.01255e-008     -0.998979    0.00103973
       13551.9   0.000255334   0.000239286 -5.22472e-008 -7.03295e-008 -5.22472e-008 -7.03295e-008     -0.998977    0.00104232
       13614.4   0.000255884   0.000239837 -5.23739e-008 -7.05342e-008 -5.23739e-008 -7.05342e-008     -0.998975    0.00104492
       13677.3   0.000256436   0.000240389 -5.25009e-008 -7.07395e-008 -5.25009e-008 -7.07395e-008     -0.998972    0.00104753
       13740.4   0.000256988   0.000240943 -5.26283e-008 -7.09455e-008 -5.26283e-008 -7.09455e-008      -0.99897    0.00105014
       13803.8   0.000257542   0.000241498  -5.2756e-008 -7.11521e-008  -5.2756e-008 -7.11521e-008     -0.998968    0.00105276
       13867.6   0.000258097   0.000242055 -5.28841e-008 -7.13595e-008 -5.28841e-008 -7.13595e-008     -0.998966    0.00105539
       13931.6   0.000258654   0.000242612 -5.30125e-008 -7.15674e-008 -5.30125e-008 -7.15674e-008     -0.998963    0.00105802
       13995.9   0.000259212   0.000243171 -5.31412e-008 -7.17761e-008 -5.31412e-008 -7.17761e-008     -0.998961    0.00106066
       14060.5    0.00025977   0.000243732 -5.32703e-008 -7.19854e-008 -5.32703e-008 -7.19854e-008     -0.998959    0.00106331
       14125.4   0.000260331   0.000244293 -5.33998e-008 -7.21954e-008 -5.33998e-008 -7.21954e-008     -0.998957    0.00106596
       14190.6   0.000260892   0.000244856 -5.35296e-008 -7.24061e-008 -5.35296e-008 -7.24061e-008     -0.998954    0.00106862
       14256.1   0.000261455    0.00024542 -5.36598e-008 -7.26174e-008 -5.36598e-008 -7.26174e-008     -0.998952    0.00107129
       14321.9   0.000262019   0.000245986 -5.37903e-008 -7.28295e-008 -5.37903e-008 -7.28295e-008      -0.99895    0.00107396
         14388   0.000262585   0.000246552 -5.39211e-008 -7.30422e-008 -5.39211e-008 -7.30422e-008     -0.998948    0.00107665
       14454.4   0.000263151    0.00024712 -5.40524e-008 -7.32556e-008 -5.40524e-008 -7.32556e-008     -0.998945    0.00107934
       14521.1    0.00026372    0.00024769 -5.41839e-008 -7.34697e-008 -5.41839e-008 -7.34697e-008     -0.998943    0.00108203
       14588.1   0.000264289    0.00024826 -5.43159e-008 -7.36845e-008 -5.43159e-008 -7.36845e-008     -0.998941    0.00108474
       14655.5    0.00026486   0.000248832 -5.44482e-008    -7.39e-008 -5.44482e-008    -7.39e-008     -0.998939    0.00108745
       14723.1   0.000265431   0.000249406 -5.45808e-008 -7.41162e-008 -5.45808e-008 -7.41162e-008     -0.998936    0.00109017
       14791.1   0.000266005    0.00024998 -5.47138e-008 -7.43331e-008 -5.47138e-008 -7.43331e-008     -0.998934    0.00109289
       14859.4   0.000266579   0.000250556 -5.48472e-008 -7.45507e-008 -5.48472e-008 -7.45507e-008     -0.998932    0.00109562
       14927.9   0.000267155   0.000251133  -5.4981e-008  -7.4769e-008  -5.4981e-008  -7.4769e-008     -0.998929    0.00109836
       14996.8   0.000267732   0.000251712 -5.51151e-008  -7.4988e-008 -5.51151e-008  -7.4988e-008     -0.998927    0.00110111
       15066.1   0.000268311   0.000252292 -5.52495e-008 -7.52077e-008 -5.52495e-008 -7.52077e-008     -0.998925    0.00110387
       15135.6   0.000268891   0.000252873 -5.53844e-008 -7.54281e-008 -5.53844e-008 -7.54281e-008     -0.998922    0.00110663
       15205.5   0.000269472   0.000253456 -5.55196e-008 -7.56492e-008 -5.55196e-008 -7.56492e-008      -0.99892     0.0011094
       15275.7   0.000270055   0.000254039 -5.56552e-008 -7.58711e-008 -5.56552e-008 -7.58711e-008     -0.998918    0.00111217
       15346.2   0.000270639   0.000254625 -5.57911e-008 -7.60937e-008 -5.57911e-008 -7.60937e-008     -0.998915    0.00111496
         15417   0.000271224   0.000255211 -5.59275e-008  -7.6317e-008 -5.59275e-008  -7.6317e-008     -0.998913    0.00111775
       15488.2    0.00027181   0.000255799 -5.60642e-008  -7.6541e-008 -5.60642e-008  -7.6541e-008     -0.998911    0.00112055
       15559.7   0.000272398   0.000256389 -5.62013e-008 -7.67657e-008 -5.62013e-008 -7.67657e-008     -0.998908    0.00112336
       15631.5   0.000272988   0.000256979 -5.63387e-008 -7.69912e-008 -5.63387e-008 -7.69912e-008     -0.998906    0.00112617
       15703.6   0.000273578   0.000257571 -5.64766e-008 -7.72174e-008 -5.64765e-008 -7.72174e-008     -0.998904    0.00112899
       15776.1    0.00027417   0.000258165 -5.66148e-008 -7.74443e-008 -5.66148e-008 -7.74443e-008     -0.998901    0.00113182
       15848.9   0.000274764   0.000258759 -5.67534e-008  -7.7672e-008 -5.67534e-008  -7.7672e-008     -0.998899    0.00113466
       15922.1   0.000275358   0.000259356 -5.68923e-008 -7.79005e-008 -5.68923e-008 -7.79005e-008     -0.998896     0.0011375
       15995.6   0.000275954   0.000259953 -5.70317e-008 -7.81296e-008 -5.70317e-008 -7.81296e-008     -0.998894    0.00114035
       16069.4   0.000276552   0.000260552 -5.71715e-008 -7.83595e-008 -5.71715e-008 -7.83595e-008     -0.998892    0.00114321
       16143.6   0.000277151   0.000261152 -5.73116e-008 -7.85902e-008 -5.73116e-008 -7.85902e-008     -0.998889    0.00114608
       16218.1   0.000277751   0.000261754 -5.74521e-008 -7.88216e-008 -5.74521e-008 -7.88216e-008     -0.998887    0.00114895
         16293   0.000278353   0.000262357  -5.7593e-008 -7.90538e-008  -5.7593e-008 -7.90538e-008     -0.998884    0.00115184
       16368.2   0.000278955   0.000262961 -5.77344e-008 -7.92867e-008 -5.77344e-008 -7.92867e-008     -0.998882    0.00115473
       16443.7    0.00027956   0.000263567 -5.78761e-008 -7.95204e-008 -5.78761e-008 -7.95204e-008      -0.99888    0.00115763
       16519.6   0.000280166   0.000264174 -5.80182e-008 -7.97548e-008 -5.80182e-008 -7.97548e-008     -0.998877    0.00116053
       16595.9   0.000280773   0.000264783 -5.81606e-008   -7.999e-008 -5.81606e-008   -7.999e-008     -0.998875    0.00116344
       16672.5   0.000281381   0.000265393 -5.83035e-008  -8.0226e-008 -5.83035e-008  -8.0226e-008     -0.998872    0.00116637
       16749.4   0.000281991   0.000266004 -5.84468e-008 -8.04627e-008 -5.84468e-008 -8.04627e-008      -0.99887     0.0011693
       16826.7   0.000282602   0.000266617 -5.85905e-008 -8.07002e-008 -5.85905e-008 -8.07002e-008     -0.998867    0.00117223
       16904.4   0.000283215   0.000267231 -5.87346e-008 -8.09385e-008 -5.87346e-008 -8.09385e-008     -0.998865    0.00117518
       16982.4   0.000283829   0.000267847 -5.88791e-008 -8.11776e-008 -5.88791e-008 -8.11776e-008     -0.998862    0.00117813
       17060.8   0.000284445   0.000268464  -5.9024e-008 -8.14174e-008  -5.9024e-008 -8.14174e-008      -0.99886    0.00118109
       17139.6   0.000285062   0.000269082 -5.91693e-008  -8.1658e-008 -5.91693e-008  -8.1658e-008     -0.998857    0.00118406
       17218.7    0.00028568   0.000269702  -5.9315e-008 -8.18995e-008  -5.9315e-008 -8.18995e-008     -0.998855    0.00118704
       17298.2     0.0002863   0.000270324 -5.94611e-008 -8.21417e-008 -5.94611e-008 -8.21417e-008     -0.998852    0.00119002
         17378   0.000286921   0.000270946 -5.96077e-008 -8.23846e-008 -5.96077e-008 -8.23846e-008      -0.99885    0.00119301
       17458.2   0.000287544   0.000271571 -5.97546e-008 -8.26284e-008 -5.97546e-008 -8.26284e-008     -0.998847    0.00119601
       17538.8   0.000288168   0.000272196  -5.9902e-008  -8.2873e-008  -5.9902e-008  -8.2873e-008     -0.998845    0.00119902
       17619.8   0.000288793   0.000272823 -6.00497e-008 -8.31184e-008 -6.00497e-008 -8.31184e-008     -0.998842    0.00120204
       17701.1    0.00028942   0.000273452 -6.01979e-008 -8.33646e-008 -6.01979e-008 -8.33646e-008      -0.99884    0.00120507
       17782.8   0.000290049   0.000274082 -6.03465e-008 -8.36116e-008 -6.03465e-008 -8.36116e-008     -0.998837     0.0012081
       17864.9   0.000290679   0.000274713 -6.04956e-008 -8.38594e-008 -6.04955e-008 -8.38594e-008     -0.998835    0.00121114
       17947.3    0.00029131   0.000275346  -6.0645e-008  -8.4108e-008  -6.0645e-008  -8.4108e-008     -0.998832    0.00121419
       18030.2   0.000291943    0.00027598 -6.07949e-008 -8.43574e-008 -6.07949e-008 -8.43574e-008      -0.99883    0.00121725
       18113.4   0.000292577   0.000276616 -6.09452e-008 -8.46077e-008 -6.09452e-008 -8.46077e-008     -0.998827    0.00122031
         18197   0.000293212   0.000277253 -6.10959e-008 -8.48588e-008 -6.10959e-008 -8.48588e-008     -0.998825    0.00122339
         18281    0.00029385   0.000277892  -6.1247e-008 -8.51107e-008  -6.1247e-008 -8.51107e-008     -0.998822    0.00122647
       18365.4   0.000294488   0.000278532 -6.13986e-008 -8.53634e-008 -6.13986e-008 -8.53634e-008      -0.99882    0.00122956
       18450.2   0.000295128   0.000279174 -6.15506e-008 -8.56169e-008 -6.15506e-008 -8.56169e-008     -0.998817    0.00123266
       18535.3    0.00029577   0.000279817 -6.17031e-008 -8.58713e-008 -6.17031e-008 -8.58713e-008     -0.998814    0.00123577
       18620.9   0.000296413   0.000280461  -6.1856e-008 -8.61265e-008  -6.1856e-008 -8.61265e-008     -0.998812    0.00123888
       18706.8   0.000297057   0.000281107 -6.20093e-008 -8.63826e-008 -6.20093e-008 -8.63826e-008     -0.998809    0.00124201
       18793.2   0.000297703   0.000281755  -6.2163e-008 -8.66395e-008  -6.2163e-008 -8.66395e-008     -0.998807    0.00124514
       18879.9    0.00029835   0.000282404 -6.23172e-008 -8.68972e-008 -6.23172e-008 -8.68972e-008     -0.998804    0.00124828
       18967.1   0.000298999   0.000283055 -6.24719e-008 -8.71558e-008 -6.24719e-008 -8.71558e-008     -0.998801    0.00125143
       19054.6    0.00029965   0.000283707  -6.2627e-008 -8.74152e-008  -6.2627e-008 -8.74152e-008     -0.998799    0.00125459
       19142.6   0.000300302    0.00028436 -6.27825e-008 -8.76755e-008 -6.27825e-008 -8.76755e-008     -0.998796    0.00125776
       19230.9   0.000300955   0.000285015 -6.29384e-008 -8.79366e-008 -6.29384e-008 -8.79366e-008     -0.998794    0.00126093
       19319.7    0.00030161   0.000285672 -6.30949e-008 -8.81986e-008 -6.30949e-008 -8.81986e-008     -0.998791    0.00126412
       19408.9   0.000302266    0.00028633 -6.32517e-008 -8.84615e-008 -6.32517e-008 -8.84615e-008     -0.998788    0.00126731
       19498.4   0.000302924    0.00028699 -6.34091e-008 -8.87252e-008 -6.34091e-008 -8.87252e-008     -0.998786    0.00127051
       19588.4   0.000303583   0.000287651 -6.35668e-008 -8.89898e-008 -6.35668e-008 -8.89898e-008     -0.998783    0.00127372
       19678.9   0.000304244   0.000288313 -6.37251e-008 -8.92553e-008 -6.37251e-008 -8.92553e-008      -0.99878    0.00127694
       19769.7   0.000304907   0.000288977 -6.38838e-008 -8.95216e-008 -6.38838e-008 -8.95216e-008     -0.998778    0.00128017
       19860.9   0.000305571   0.000289643 -6.40429e-008 -8.97888e-008 -6.40429e-008 -8.97888e-008     -0.998775     0.0012834
       19952.6   0.000306236    0.00029031 -6.42025e-008 -9.00569e-008 -6.42025e-008 -9.00569e-008     -0.998772    0.00128665
       20044.7   0.000306903   0.000290979 -6.43626e-008 -9.03259e-008 -6.43626e-008 -9.03259e-008      -0.99877     0.0012899
       20137.2   0.000307572   0.000291649 -6.45231e-008 -9.05958e-008 -6.45231e-008 -9.05958e-008     -0.998767    0.00129316
       20230.2   0.000308242   0.000292321 -6.46841e-008 -9.08666e-008 -6.46841e-008 -9.08666e-008     -0.998764    0.00129644
       20323.6   0.000308913   0.000292995 -6.48456e-008 -9.11382e-008 -6.48456e-008 -9.11382e-008     -0.998762    0.00129972
