! NPort=2 DATA=4501 NOISE=0 GROUPDELAY=0 COMPLEX_DATAFORMAT=RI
! NumOfBlock=1 NumOfParam=0
!
! .MODEL Smodel S TSTONEFILE=./link_rx/link_rx_l2/lr10000_10000000000000dec_2_1.s2p TYPE=S
!   -- The above .MODEL line can be used for the S element in the netlist.
!
!
# Hz S RI R             50
         10000   0.000221685   0.000205565 -1.85527e-005 -3.04751e-005 -1.85527e-005 -3.04751e-005     -0.999112   0.000891392
       10046.2   0.000222158   0.000206038 -1.85956e-005 -3.05729e-005 -1.85956e-005 -3.05729e-005      -0.99911   0.000893606
       10092.5   0.000222632   0.000206513 -1.86385e-005  -3.0671e-005 -1.86385e-005  -3.0671e-005     -0.999108   0.000895825
       10139.1   0.000223107   0.000206989 -1.86816e-005 -3.07696e-005 -1.86816e-005 -3.07696e-005     -0.999106   0.000898051
       10185.9   0.000223583   0.000207466 -1.87247e-005 -3.08684e-005 -1.87247e-005 -3.08684e-005     -0.999104   0.000900282
       10232.9    0.00022406   0.000207944  -1.8768e-005 -3.09676e-005  -1.8768e-005 -3.09676e-005     -0.999102   0.000902519
       10280.2   0.000224538   0.000208423 -1.88113e-005 -3.10672e-005 -1.88113e-005 -3.10672e-005       -0.9991   0.000904762
       10327.6   0.000225018   0.000208903 -1.88548e-005 -3.11672e-005 -1.88548e-005 -3.11672e-005     -0.999098   0.000907011
       10375.3   0.000225498   0.000209385 -1.88983e-005 -3.12675e-005 -1.88983e-005 -3.12675e-005     -0.999097   0.000909266
       10423.2   0.000225979   0.000209867  -1.8942e-005 -3.13681e-005  -1.8942e-005 -3.13681e-005     -0.999095   0.000911527
       10471.3   0.000226462   0.000210351 -1.89857e-005 -3.14691e-005 -1.89857e-005 -3.14691e-005     -0.999093   0.000913794
       10519.6   0.000226946   0.000210835 -1.90296e-005 -3.15705e-005 -1.90296e-005 -3.15705e-005     -0.999091   0.000916067
       10568.2   0.000227431   0.000211321 -1.90735e-005 -3.16723e-005 -1.90735e-005 -3.16723e-005     -0.999089   0.000918345
         10617   0.000227917   0.000211808 -1.91176e-005 -3.17744e-005 -1.91176e-005 -3.17744e-005     -0.999087    0.00092063
         10666   0.000228404   0.000212296 -1.91617e-005 -3.18769e-005 -1.91617e-005 -3.18769e-005     -0.999085   0.000922921
       10715.2   0.000228892   0.000212785  -1.9206e-005 -3.19798e-005  -1.9206e-005 -3.19798e-005     -0.999083   0.000925218
       10764.7   0.000229381   0.000213275 -1.92504e-005  -3.2083e-005 -1.92504e-005  -3.2083e-005     -0.999081   0.000927521
       10814.3   0.000229872   0.000213767 -1.92948e-005 -3.21866e-005 -1.92948e-005 -3.21866e-005     -0.999079    0.00092983
       10864.3   0.000230363   0.000214259 -1.93394e-005 -3.22906e-005 -1.93394e-005 -3.22906e-005     -0.999077   0.000932145
       10914.4   0.000230856   0.000214753 -1.93841e-005  -3.2395e-005 -1.93841e-005  -3.2395e-005     -0.999075   0.000934467
       10964.8    0.00023135   0.000215248 -1.94288e-005 -3.24997e-005 -1.94288e-005 -3.24997e-005     -0.999073   0.000936794
       11015.4   0.000231845   0.000215744 -1.94737e-005 -3.26048e-005 -1.94737e-005 -3.26048e-005     -0.999071   0.000939128
       11066.2   0.000232341   0.000216241 -1.95187e-005 -3.27103e-005 -1.95187e-005 -3.27103e-005     -0.999069   0.000941468
       11117.3   0.000232838   0.000216739 -1.95638e-005 -3.28162e-005 -1.95638e-005 -3.28162e-005     -0.999067   0.000943814
       11168.6   0.000233336   0.000217238  -1.9609e-005 -3.29225e-005  -1.9609e-005 -3.29225e-005     -0.999065   0.000946166
       11220.2   0.000233836   0.000217739 -1.96543e-005 -3.30292e-005 -1.96543e-005 -3.30292e-005     -0.999063   0.000948525
         11272   0.000234336   0.000218241 -1.96997e-005 -3.31362e-005 -1.96997e-005 -3.31362e-005     -0.999061   0.000950889
         11324   0.000234838   0.000218743 -1.97452e-005 -3.32436e-005 -1.97452e-005 -3.32436e-005     -0.999059    0.00095326
       11376.3   0.000235341   0.000219247 -1.97908e-005 -3.33515e-005 -1.97908e-005 -3.33515e-005     -0.999057   0.000955638
       11428.8   0.000235845   0.000219753 -1.98365e-005 -3.34597e-005 -1.98365e-005 -3.34597e-005     -0.999055   0.000958021
       11481.5   0.000236351   0.000220259 -1.98823e-005 -3.35683e-005 -1.98823e-005 -3.35683e-005     -0.999053   0.000960411
       11534.5   0.000236857   0.000220766 -1.99283e-005 -3.36773e-005 -1.99283e-005 -3.36773e-005     -0.999051   0.000962808
       11587.8   0.000237365   0.000221275 -1.99743e-005 -3.37867e-005 -1.99743e-005 -3.37867e-005     -0.999049    0.00096521
       11641.3   0.000237874   0.000221785 -2.00205e-005 -3.38965e-005 -2.00205e-005 -3.38965e-005     -0.999047   0.000967619
         11695   0.000238384   0.000222296 -2.00667e-005 -3.40067e-005 -2.00667e-005 -3.40067e-005     -0.999045   0.000970035
         11749   0.000238895   0.000222808 -2.01131e-005 -3.41173e-005 -2.01131e-005 -3.41173e-005     -0.999043   0.000972457
       11803.2   0.000239407   0.000223321 -2.01595e-005 -3.42283e-005 -2.01595e-005 -3.42283e-005     -0.999041   0.000974885
       11857.7    0.00023992   0.000223836 -2.02061e-005 -3.43398e-005 -2.02061e-005 -3.43398e-005     -0.999039    0.00097732
       11912.4   0.000240435   0.000224352 -2.02528e-005 -3.44516e-005 -2.02528e-005 -3.44516e-005     -0.999037   0.000979761
       11967.4   0.000240951   0.000224868 -2.02996e-005 -3.45638e-005 -2.02996e-005 -3.45638e-005     -0.999035   0.000982209
       12022.6   0.000241468   0.000225387 -2.03465e-005 -3.46764e-005 -2.03465e-005 -3.46764e-005     -0.999032   0.000984663
       12078.1   0.000241986   0.000225906 -2.03935e-005 -3.47895e-005 -2.03935e-005 -3.47895e-005      -0.99903   0.000987124
       12133.9   0.000242506   0.000226426 -2.04406e-005  -3.4903e-005 -2.04406e-005  -3.4903e-005     -0.999028   0.000989591
       12189.9   0.000243026   0.000226948 -2.04878e-005 -3.50168e-005 -2.04878e-005 -3.50168e-005     -0.999026   0.000992065
       12246.2   0.000243548   0.000227471 -2.05352e-005 -3.51311e-005 -2.05352e-005 -3.51311e-005     -0.999024   0.000994546
       12302.7   0.000244071   0.000227995 -2.05826e-005 -3.52459e-005 -2.05826e-005 -3.52459e-005     -0.999022   0.000997033
       12359.5   0.000244595    0.00022852 -2.06302e-005  -3.5361e-005 -2.06302e-005  -3.5361e-005      -0.99902   0.000999526
       12416.5   0.000245121   0.000229047 -2.06778e-005 -3.54765e-005 -2.06778e-005 -3.54765e-005     -0.999018    0.00100203
       12473.8   0.000245647   0.000229574 -2.07256e-005 -3.55925e-005 -2.07256e-005 -3.55925e-005     -0.999016    0.00100453
       12531.4   0.000246175   0.000230103 -2.07735e-005 -3.57089e-005 -2.07735e-005 -3.57089e-005     -0.999014    0.00100705
       12589.3   0.000246704   0.000230634 -2.08215e-005 -3.58258e-005 -2.08215e-005 -3.58258e-005     -0.999011    0.00100957
       12647.4   0.000247234   0.000231165 -2.08696e-005  -3.5943e-005 -2.08696e-005  -3.5943e-005     -0.999009     0.0010121
       12705.7   0.000247766   0.000231697 -2.09178e-005 -3.60607e-005 -2.09178e-005 -3.60607e-005     -0.999007    0.00101463
       12764.4   0.000248298   0.000232231 -2.09662e-005 -3.61788e-005 -2.09662e-005 -3.61788e-005     -0.999005    0.00101717
       12823.3   0.000248832   0.000232766 -2.10146e-005 -3.62974e-005 -2.10146e-005 -3.62974e-005     -0.999003    0.00101972
       12882.5   0.000249367   0.000233303 -2.10632e-005 -3.64164e-005 -2.10632e-005 -3.64164e-005     -0.999001    0.00102227
         12942   0.000249904    0.00023384 -2.11118e-005 -3.65358e-005 -2.11118e-005 -3.65358e-005     -0.998999    0.00102483
       13001.7   0.000250441   0.000234379 -2.11606e-005 -3.66557e-005 -2.11606e-005 -3.66557e-005     -0.998996     0.0010274
       13061.7    0.00025098   0.000234919 -2.12095e-005  -3.6776e-005 -2.12095e-005  -3.6776e-005     -0.998994    0.00102998
         13122    0.00025152    0.00023546 -2.12585e-005 -3.68967e-005 -2.12585e-005 -3.68967e-005     -0.998992    0.00103256
       13182.6   0.000252062   0.000236003 -2.13077e-005 -3.70179e-005 -2.13077e-005 -3.70179e-005      -0.99899    0.00103515
       13243.4   0.000252604   0.000236546 -2.13569e-005 -3.71395e-005 -2.13569e-005 -3.71395e-005     -0.998988    0.00103774
       13304.5   0.000253148   0.000237091 -2.14063e-005 -3.72616e-005 -2.14063e-005 -3.72616e-005     -0.998986    0.00104034
         13366   0.000253693   0.000237637 -2.14557e-005 -3.73842e-005 -2.14557e-005 -3.73842e-005     -0.998983    0.00104295
       13427.6   0.000254239   0.000238185 -2.15053e-005 -3.75072e-005 -2.15053e-005 -3.75072e-005     -0.998981    0.00104557
       13489.6   0.000254787   0.000238734  -2.1555e-005 -3.76306e-005  -2.1555e-005 -3.76306e-005     -0.998979    0.00104819
       13551.9   0.000255336   0.000239284 -2.16048e-005 -3.77545e-005 -2.16048e-005 -3.77545e-005     -0.998977    0.00105082
       13614.4   0.000255886   0.000239835 -2.16548e-005 -3.78788e-005 -2.16548e-005 -3.78788e-005     -0.998975    0.00105346
       13677.3   0.000256437   0.000240388 -2.17048e-005 -3.80037e-005 -2.17048e-005 -3.80037e-005     -0.998972    0.00105611
       13740.4    0.00025699   0.000240941  -2.1755e-005 -3.81289e-005  -2.1755e-005 -3.81289e-005      -0.99897    0.00105876
       13803.8   0.000257544   0.000241496 -2.18053e-005 -3.82547e-005 -2.18053e-005 -3.82547e-005     -0.998968    0.00106142
       13867.6   0.000258099   0.000242053 -2.18556e-005 -3.83809e-005 -2.18556e-005 -3.83809e-005     -0.998966    0.00106408
       13931.6   0.000258655   0.000242611 -2.19062e-005 -3.85075e-005 -2.19062e-005 -3.85075e-005     -0.998963    0.00106676
       13995.9   0.000259213   0.000243169 -2.19568e-005 -3.86347e-005 -2.19568e-005 -3.86347e-005     -0.998961    0.00106944
       14060.5   0.000259772    0.00024373 -2.20075e-005 -3.87623e-005 -2.20075e-005 -3.87623e-005     -0.998959    0.00107212
       14125.4   0.000260332   0.000244291 -2.20584e-005 -3.88903e-005 -2.20584e-005 -3.88903e-005     -0.998957    0.00107482
       14190.6   0.000260894   0.000244854 -2.21094e-005 -3.90189e-005 -2.21094e-005 -3.90189e-005     -0.998954    0.00107752
       14256.1   0.000261457   0.000245418 -2.21605e-005 -3.91479e-005 -2.21605e-005 -3.91479e-005     -0.998952    0.00108023
       14321.9   0.000262021   0.000245984 -2.22117e-005 -3.92774e-005 -2.22117e-005 -3.92774e-005      -0.99895    0.00108295
         14388   0.000262586    0.00024655 -2.22631e-005 -3.94074e-005 -2.22631e-005 -3.94074e-005     -0.998948    0.00108567
       14454.4   0.000263153   0.000247118 -2.23145e-005 -3.95378e-005 -2.23145e-005 -3.95378e-005     -0.998945     0.0010884
       14521.1   0.000263721   0.000247688 -2.23661e-005 -3.96688e-005 -2.23661e-005 -3.96688e-005     -0.998943    0.00109114
       14588.1   0.000264291   0.000248258 -2.24178e-005 -3.98002e-005 -2.24178e-005 -3.98002e-005     -0.998941    0.00109388
       14655.5   0.000264861    0.00024883 -2.24696e-005 -3.99321e-005 -2.24696e-005 -3.99321e-005     -0.998939    0.00109664
       14723.1   0.000265433   0.000249403 -2.25216e-005 -4.00645e-005 -2.25216e-005 -4.00645e-005     -0.998936     0.0010994
       14791.1   0.000266006   0.000249978 -2.25736e-005 -4.01974e-005 -2.25736e-005 -4.01974e-005     -0.998934    0.00110217
       14859.4   0.000266581   0.000250554 -2.26258e-005 -4.03308e-005 -2.26258e-005 -4.03308e-005     -0.998932    0.00110494
       14927.9   0.000267157   0.000251131 -2.26781e-005 -4.04647e-005 -2.26781e-005 -4.04647e-005     -0.998929    0.00110773
       14996.8   0.000267734    0.00025171 -2.27305e-005 -4.05991e-005 -2.27305e-005 -4.05991e-005     -0.998927    0.00111052
       15066.1   0.000268313    0.00025229 -2.27831e-005  -4.0734e-005 -2.27831e-005  -4.0734e-005     -0.998925    0.00111331
       15135.6   0.000268893   0.000252871 -2.28357e-005 -4.08694e-005 -2.28357e-005 -4.08694e-005     -0.998922    0.00111612
       15205.5   0.000269474   0.000253453 -2.28885e-005 -4.10052e-005 -2.28885e-005 -4.10052e-005      -0.99892    0.00111893
       15275.7   0.000270057   0.000254037 -2.29415e-005 -4.11416e-005 -2.29415e-005 -4.11416e-005     -0.998918    0.00112175
       15346.2    0.00027064   0.000254622 -2.29945e-005 -4.12785e-005 -2.29945e-005 -4.12785e-005     -0.998915    0.00112458
         15417   0.000271226   0.000255209 -2.30477e-005 -4.14159e-005 -2.30477e-005 -4.14159e-005     -0.998913    0.00112742
       15488.2   0.000271812   0.000255797 -2.31009e-005 -4.15539e-005 -2.31009e-005 -4.15539e-005     -0.998911    0.00113026
       15559.7     0.0002724   0.000256386 -2.31543e-005 -4.16923e-005 -2.31543e-005 -4.16923e-005     -0.998908    0.00113311
       15631.5    0.00027299   0.000256977 -2.32079e-005 -4.18313e-005 -2.32079e-005 -4.18313e-005     -0.998906    0.00113597
       15703.6    0.00027358   0.000257569 -2.32615e-005 -4.19707e-005 -2.32615e-005 -4.19707e-005     -0.998904    0.00113884
       15776.1   0.000274172   0.000258162 -2.33153e-005 -4.21107e-005 -2.33153e-005 -4.21107e-005     -0.998901    0.00114171
       15848.9   0.000274766   0.000258757 -2.33692e-005 -4.22512e-005 -2.33692e-005 -4.22512e-005     -0.998899     0.0011446
       15922.1    0.00027536   0.000259353 -2.34233e-005 -4.23922e-005 -2.34233e-005 -4.23922e-005     -0.998896    0.00114749
       15995.6   0.000275956   0.000259951 -2.34774e-005 -4.25338e-005 -2.34774e-005 -4.25338e-005     -0.998894    0.00115038
       16069.4   0.000276554    0.00026055 -2.35317e-005 -4.26759e-005 -2.35317e-005 -4.26759e-005     -0.998892    0.00115329
       16143.6   0.000277153    0.00026115 -2.35861e-005 -4.28185e-005 -2.35861e-005 -4.28185e-005     -0.998889     0.0011562
       16218.1   0.000277753   0.000261751 -2.36407e-005 -4.29617e-005 -2.36407e-005 -4.29617e-005     -0.998887    0.00115912
         16293   0.000278355   0.000262354 -2.36953e-005 -4.31053e-005 -2.36953e-005 -4.31053e-005     -0.998884    0.00116205
       16368.2   0.000278957   0.000262959 -2.37501e-005 -4.32496e-005 -2.37501e-005 -4.32496e-005     -0.998882    0.00116499
       16443.7   0.000279562   0.000263565  -2.3805e-005 -4.33943e-005  -2.3805e-005 -4.33943e-005     -0.998879    0.00116794
       16519.6   0.000280168   0.000264172 -2.38601e-005 -4.35396e-005 -2.38601e-005 -4.35396e-005     -0.998877    0.00117089
       16595.9   0.000280775    0.00026478 -2.39153e-005 -4.36855e-005 -2.39153e-005 -4.36855e-005     -0.998875    0.00117385
       16672.5   0.000281383    0.00026539 -2.39706e-005 -4.38319e-005 -2.39706e-005 -4.38319e-005     -0.998872    0.00117682
       16749.4   0.000281993   0.000266002  -2.4026e-005 -4.39788e-005  -2.4026e-005 -4.39788e-005      -0.99887     0.0011798
       16826.7   0.000282605   0.000266614 -2.40815e-005 -4.41263e-005 -2.40815e-005 -4.41263e-005     -0.998867    0.00118278
       16904.4   0.000283217   0.000267229 -2.41372e-005 -4.42743e-005 -2.41372e-005 -4.42743e-005     -0.998865    0.00118578
       16982.4   0.000283831   0.000267844 -2.41931e-005 -4.44229e-005 -2.41931e-005 -4.44229e-005     -0.998862    0.00118878
       17060.8   0.000284447   0.000268461  -2.4249e-005 -4.45721e-005  -2.4249e-005 -4.45721e-005      -0.99886    0.00119179
       17139.6   0.000285064    0.00026908 -2.43051e-005 -4.47218e-005 -2.43051e-005 -4.47218e-005     -0.998857    0.00119481
       17218.7   0.000285682     0.0002697 -2.43613e-005 -4.48721e-005 -2.43613e-005 -4.48721e-005     -0.998855    0.00119783
       17298.2   0.000286302   0.000270321 -2.44176e-005 -4.50229e-005 -2.44176e-005 -4.50229e-005     -0.998852    0.00120087
         17378   0.000286923   0.000270944 -2.44741e-005 -4.51743e-005 -2.44741e-005 -4.51743e-005      -0.99885    0.00120391
       17458.2   0.000287546   0.000271568 -2.45307e-005 -4.53263e-005 -2.45307e-005 -4.53263e-005     -0.998847    0.00120696
       17538.8    0.00028817   0.000272193 -2.45875e-005 -4.54789e-005 -2.45875e-005 -4.54789e-005     -0.998845    0.00121002
       17619.8   0.000288796    0.00027282 -2.46443e-005  -4.5632e-005 -2.46443e-005  -4.5632e-005     -0.998842    0.00121309
       17701.1   0.000289423   0.000273449 -2.47013e-005 -4.57857e-005 -2.47013e-005 -4.57857e-005      -0.99884    0.00121616
       17782.8   0.000290051   0.000274079 -2.47585e-005 -4.59399e-005 -2.47585e-005 -4.59399e-005     -0.998837    0.00121925
       17864.9   0.000290681    0.00027471 -2.48157e-005 -4.60948e-005 -2.48157e-005 -4.60948e-005     -0.998835    0.00122234
       17947.3   0.000291312   0.000275343 -2.48731e-005 -4.62502e-005 -2.48731e-005 -4.62502e-005     -0.998832    0.00122544
       18030.2   0.000291945   0.000275977 -2.49307e-005 -4.64062e-005 -2.49307e-005 -4.64062e-005      -0.99883    0.00122855
       18113.4   0.000292579   0.000276613 -2.49883e-005 -4.65628e-005 -2.49883e-005 -4.65628e-005     -0.998827    0.00123167
         18197   0.000293215    0.00027725 -2.50461e-005   -4.672e-005 -2.50461e-005   -4.672e-005     -0.998825     0.0012348
         18281   0.000293852   0.000277889 -2.51041e-005 -4.68778e-005 -2.51041e-005 -4.68778e-005     -0.998822    0.00123793
       18365.4    0.00029449   0.000278529 -2.51621e-005 -4.70362e-005 -2.51621e-005 -4.70362e-005      -0.99882    0.00124108
       18450.2   0.000295131   0.000279171 -2.52204e-005 -4.71952e-005 -2.52204e-005 -4.71952e-005     -0.998817    0.00124423
       18535.3   0.000295772   0.000279814 -2.52787e-005 -4.73548e-005 -2.52787e-005 -4.73548e-005     -0.998814    0.00124739
       18620.9   0.000296415   0.000280458 -2.53372e-005 -4.75149e-005 -2.53372e-005 -4.75149e-005     -0.998812    0.00125056
       18706.8   0.000297059   0.000281105 -2.53958e-005 -4.76757e-005 -2.53958e-005 -4.76757e-005     -0.998809    0.00125374
       18793.2   0.000297705   0.000281752 -2.54545e-005 -4.78371e-005 -2.54545e-005 -4.78371e-005     -0.998807    0.00125692
       18879.9   0.000298353   0.000282401 -2.55134e-005 -4.79991e-005 -2.55134e-005 -4.79991e-005     -0.998804    0.00126012
       18967.1   0.000299002   0.000283052 -2.55725e-005 -4.81617e-005 -2.55725e-005 -4.81617e-005     -0.998801    0.00126332
       19054.6   0.000299652   0.000283704 -2.56316e-005  -4.8325e-005 -2.56316e-005  -4.8325e-005     -0.998799    0.00126654
       19142.6   0.000300304   0.000284357 -2.56909e-005 -4.84888e-005 -2.56909e-005 -4.84888e-005     -0.998796    0.00126976
       19230.9   0.000300957   0.000285012 -2.57504e-005 -4.86533e-005 -2.57504e-005 -4.86533e-005     -0.998794    0.00127299
       19319.7   0.000301612   0.000285669 -2.58099e-005 -4.88184e-005 -2.58099e-005 -4.88184e-005     -0.998791    0.00127623
       19408.9   0.000302269   0.000286327 -2.58697e-005 -4.89841e-005 -2.58697e-005 -4.89841e-005     -0.998788    0.00127948
       19498.4   0.000302927   0.000286986 -2.59295e-005 -4.91504e-005 -2.59295e-005 -4.91504e-005     -0.998786    0.00128274
       19588.4   0.000303586   0.000287648 -2.59895e-005 -4.93174e-005 -2.59895e-005 -4.93174e-005     -0.998783      0.001286
       19678.9   0.000304247    0.00028831 -2.60497e-005  -4.9485e-005 -2.60497e-005  -4.9485e-005      -0.99878    0.00128928
       19769.7   0.000304909   0.000288974 -2.61099e-005 -4.96532e-005 -2.61099e-005 -4.96532e-005     -0.998778    0.00129256
       19860.9   0.000305573    0.00028964 -2.61703e-005 -4.98221e-005 -2.61703e-005 -4.98221e-005     -0.998775    0.00129585
       19952.6   0.000306239   0.000290307 -2.62309e-005 -4.99916e-005 -2.62309e-005 -4.99916e-005     -0.998772    0.00129916
       20044.7   0.000306906   0.000290976 -2.62916e-005 -5.01617e-005 -2.62916e-005 -5.01617e-005      -0.99877    0.00130247
       20137.2   0.000307575   0.000291646 -2.63524e-005 -5.03325e-005 -2.63524e-005 -5.03325e-005     -0.998767    0.00130579
       20230.2   0.000308245   0.000292318 -2.64134e-005  -5.0504e-005 -2.64134e-005  -5.0504e-005     -0.998764    0.00130912
       20323.6   0.000308916   0.000292991 -2.64746e-005 -5.06761e-005 -2.64746e-005 -5.06761e-005     -0.998762    0.00131246
