! NPort=2 DATA=4501 NOISE=0 GROUPDELAY=0 COMPLEX_DATAFORMAT=RI
! NumOfBlock=1 NumOfParam=0
!
! .MODEL Smodel S TSTONEFILE=./link_rx/link_rx_l2/lr10000_10000000000000dec_2_3.s2p TYPE=S
!   -- The above .MODEL line can be used for the S element in the netlist.
!
!
# Hz S RI R             50
         10000     -0.332939   0.000388835      0.666469  -0.000206142      0.666469  -0.000206142     -0.333235  9.13489e-005
       10046.2     -0.332938   0.000389785      0.666469  -0.000206671      0.666469  -0.000206671     -0.333235  9.15594e-005
       10092.5     -0.332937   0.000390737      0.666468  -0.000207202      0.666468  -0.000207202     -0.333234  9.17703e-005
       10139.1     -0.332936   0.000391692      0.666468  -0.000207734      0.666468  -0.000207734     -0.333234  9.19817e-005
       10185.9     -0.332935   0.000392649      0.666467  -0.000208268      0.666467  -0.000208268     -0.333234  9.21936e-005
       10232.9     -0.332935   0.000393609      0.666467  -0.000208803      0.666467  -0.000208803     -0.333234   9.2406e-005
       10280.2     -0.332934   0.000394571      0.666467  -0.000209339      0.666467  -0.000209339     -0.333234  9.26189e-005
       10327.6     -0.332933   0.000395536      0.666466  -0.000209877      0.666466  -0.000209877     -0.333233  9.28323e-005
       10375.3     -0.332932   0.000396503      0.666466  -0.000210417      0.666466  -0.000210417     -0.333233  9.30462e-005
       10423.2     -0.332931   0.000397473      0.666465  -0.000210958      0.666465  -0.000210958     -0.333233  9.32605e-005
       10471.3      -0.33293   0.000398445      0.666465    -0.0002115      0.666465    -0.0002115     -0.333233  9.34754e-005
       10519.6     -0.332929    0.00039942      0.666464  -0.000212044      0.666464  -0.000212044     -0.333232  9.36907e-005
       10568.2     -0.332929   0.000400397      0.666464   -0.00021259      0.666464   -0.00021259     -0.333232  9.39066e-005
         10617     -0.332928   0.000401376      0.666464  -0.000213137      0.666464  -0.000213137     -0.333232  9.41229e-005
         10666     -0.332927   0.000402359      0.666463  -0.000213685      0.666463  -0.000213685     -0.333232  9.43397e-005
       10715.2     -0.332926   0.000403343      0.666463  -0.000214235      0.666463  -0.000214235     -0.333232  9.45571e-005
       10764.7     -0.332925   0.000404331      0.666462  -0.000214787      0.666462  -0.000214787     -0.333231  9.47749e-005
       10814.3     -0.332924    0.00040532      0.666462   -0.00021534      0.666462   -0.00021534     -0.333231  9.49932e-005
       10864.3     -0.332923   0.000406313      0.666461  -0.000215895      0.666461  -0.000215895     -0.333231  9.52121e-005
       10914.4     -0.332922   0.000407308      0.666461  -0.000216451      0.666461  -0.000216451     -0.333231  9.54314e-005
       10964.8     -0.332922   0.000408305      0.666461  -0.000217009      0.666461  -0.000217009     -0.333231  9.56513e-005
       11015.4     -0.332921   0.000409305       0.66646  -0.000217568       0.66646  -0.000217568      -0.33323  9.58716e-005
       11066.2      -0.33292   0.000410308       0.66646  -0.000218129       0.66646  -0.000218129      -0.33323  9.60925e-005
       11117.3     -0.332919   0.000411313      0.666459  -0.000218691      0.666459  -0.000218691      -0.33323  9.63138e-005
       11168.6     -0.332918   0.000412321      0.666459  -0.000219256      0.666459  -0.000219256      -0.33323  9.65357e-005
       11220.2     -0.332917   0.000413331      0.666458  -0.000219821      0.666458  -0.000219821     -0.333229  9.67581e-005
         11272     -0.332916   0.000414344      0.666458  -0.000220388      0.666458  -0.000220388     -0.333229   9.6981e-005
         11324     -0.332915    0.00041536      0.666457  -0.000220957      0.666457  -0.000220957     -0.333229  9.72044e-005
       11376.3     -0.332914   0.000416378      0.666457  -0.000221528      0.666457  -0.000221528     -0.333229  9.74284e-005
       11428.8     -0.332914   0.000417399      0.666456    -0.0002221      0.666456    -0.0002221     -0.333229  9.76528e-005
       11481.5     -0.332913   0.000418422      0.666456  -0.000222673      0.666456  -0.000222673     -0.333228  9.78778e-005
       11534.5     -0.332912   0.000419448      0.666456  -0.000223248      0.666456  -0.000223248     -0.333228  9.81032e-005
       11587.8     -0.332911   0.000420477      0.666455  -0.000223825      0.666455  -0.000223825     -0.333228  9.83292e-005
       11641.3      -0.33291   0.000421508      0.666455  -0.000224404      0.666455  -0.000224404     -0.333228  9.85558e-005
         11695     -0.332909   0.000422542      0.666454  -0.000224984      0.666454  -0.000224984     -0.333227  9.87828e-005
         11749     -0.332908   0.000423579      0.666454  -0.000225565      0.666454  -0.000225565     -0.333227  9.90104e-005
       11803.2     -0.332907   0.000424619      0.666453  -0.000226149      0.666453  -0.000226149     -0.333227  9.92384e-005
       11857.7     -0.332906   0.000425661      0.666453  -0.000226734      0.666453  -0.000226734     -0.333227  9.94671e-005
       11912.4     -0.332905   0.000426706      0.666452   -0.00022732      0.666452   -0.00022732     -0.333226  9.96962e-005
       11967.4     -0.332904   0.000427753      0.666452  -0.000227908      0.666452  -0.000227908     -0.333226  9.99259e-005
       12022.6     -0.332903   0.000428803      0.666451  -0.000228498      0.666451  -0.000228498     -0.333226   0.000100156
       12078.1     -0.332903   0.000429856      0.666451   -0.00022909      0.666451   -0.00022909     -0.333226   0.000100387
       12133.9     -0.332902   0.000430912      0.666451  -0.000229683      0.666451  -0.000229683     -0.333226   0.000100618
       12189.9     -0.332901    0.00043197       0.66645  -0.000230278       0.66645  -0.000230278     -0.333225    0.00010085
       12246.2       -0.3329   0.000433031       0.66645  -0.000230874       0.66645  -0.000230874     -0.333225   0.000101082
       12302.7     -0.332899   0.000434095      0.666449  -0.000231473      0.666449  -0.000231473     -0.333225   0.000101315
       12359.5     -0.332898   0.000435162      0.666449  -0.000232073      0.666449  -0.000232073     -0.333225   0.000101548
       12416.5     -0.332897   0.000436231      0.666448  -0.000232674      0.666448  -0.000232674     -0.333224   0.000101782
       12473.8     -0.332896   0.000437304      0.666448  -0.000233277      0.666448  -0.000233277     -0.333224   0.000102017
       12531.4     -0.332895   0.000438378      0.666447  -0.000233882      0.666447  -0.000233882     -0.333224   0.000102252
       12589.3     -0.332894   0.000439456      0.666447  -0.000234489      0.666447  -0.000234489     -0.333224   0.000102487
       12647.4     -0.332893   0.000440537      0.666446  -0.000235098      0.666446  -0.000235098     -0.333223   0.000102723
       12705.7     -0.332892    0.00044162      0.666446  -0.000235708      0.666446  -0.000235708     -0.333223    0.00010296
       12764.4     -0.332891   0.000442706      0.666445   -0.00023632      0.666445   -0.00023632     -0.333223   0.000103197
       12823.3      -0.33289   0.000443795      0.666445  -0.000236933      0.666445  -0.000236933     -0.333223   0.000103435
       12882.5     -0.332889   0.000444887      0.666444  -0.000237548      0.666444  -0.000237548     -0.333223   0.000103673
         12942     -0.332888   0.000445982      0.666444  -0.000238165      0.666444  -0.000238165     -0.333222   0.000103912
       13001.7     -0.332888   0.000447079      0.666443  -0.000238784      0.666443  -0.000238784     -0.333222   0.000104151
       13061.7     -0.332887   0.000448179      0.666443  -0.000239405      0.666443  -0.000239405     -0.333222   0.000104391
         13122     -0.332886   0.000449283      0.666442  -0.000240027      0.666442  -0.000240027     -0.333222   0.000104632
       13182.6     -0.332885   0.000450389      0.666442  -0.000240651      0.666442  -0.000240651     -0.333221   0.000104873
       13243.4     -0.332884   0.000451498      0.666442  -0.000241277      0.666442  -0.000241277     -0.333221   0.000105114
       13304.5     -0.332883   0.000452609      0.666441  -0.000241904      0.666441  -0.000241904     -0.333221   0.000105357
         13366     -0.332882   0.000453724      0.666441  -0.000242534      0.666441  -0.000242534     -0.333221   0.000105599
       13427.6     -0.332881   0.000454842       0.66644  -0.000243165       0.66644  -0.000243165      -0.33322   0.000105842
       13489.6      -0.33288   0.000455962       0.66644  -0.000243798       0.66644  -0.000243798      -0.33322   0.000106086
       13551.9     -0.332879   0.000457085      0.666439  -0.000244433      0.666439  -0.000244433      -0.33322   0.000106331
       13614.4     -0.332878   0.000458212      0.666439  -0.000245069      0.666439  -0.000245069      -0.33322   0.000106576
       13677.3     -0.332877   0.000459341      0.666438  -0.000245707      0.666438  -0.000245707     -0.333219   0.000106821
       13740.4     -0.332876   0.000460473      0.666438  -0.000246348      0.666438  -0.000246348     -0.333219   0.000107067
       13803.8     -0.332875   0.000461608      0.666437   -0.00024699      0.666437   -0.00024699     -0.333219   0.000107314
       13867.6     -0.332874   0.000462746      0.666437  -0.000247633      0.666437  -0.000247633     -0.333219   0.000107561
       13931.6     -0.332873   0.000463888      0.666436  -0.000248279      0.666436  -0.000248279     -0.333218   0.000107809
       13995.9     -0.332872   0.000465032      0.666436  -0.000248926      0.666436  -0.000248926     -0.333218   0.000108057
       14060.5     -0.332871   0.000466179      0.666435  -0.000249576      0.666435  -0.000249576     -0.333218   0.000108306
       14125.4      -0.33287   0.000467329      0.666435  -0.000250227      0.666435  -0.000250227     -0.333218   0.000108556
       14190.6     -0.332869   0.000468482      0.666434   -0.00025088      0.666434   -0.00025088     -0.333217   0.000108806
       14256.1     -0.332868   0.000469638      0.666434  -0.000251534      0.666434  -0.000251534     -0.333217   0.000109056
       14321.9     -0.332867   0.000470797      0.666433  -0.000252191      0.666433  -0.000252191     -0.333217   0.000109307
         14388     -0.332866   0.000471959      0.666433   -0.00025285      0.666433   -0.00025285     -0.333217   0.000109559
       14454.4     -0.332865   0.000473124      0.666432   -0.00025351      0.666432   -0.00025351     -0.333216   0.000109812
       14521.1     -0.332864   0.000474292      0.666432  -0.000254172      0.666432  -0.000254172     -0.333216   0.000110065
       14588.1     -0.332863   0.000475463      0.666431  -0.000254837      0.666431  -0.000254837     -0.333216   0.000110318
       14655.5     -0.332862   0.000476637      0.666431  -0.000255503      0.666431  -0.000255503     -0.333216   0.000110572
       14723.1     -0.332861   0.000477815       0.66643  -0.000256171       0.66643  -0.000256171     -0.333215   0.000110827
       14791.1      -0.33286   0.000478995       0.66643  -0.000256841       0.66643  -0.000256841     -0.333215   0.000111082
       14859.4     -0.332859   0.000480179      0.666429  -0.000257512      0.666429  -0.000257512     -0.333215   0.000111338
       14927.9     -0.332858   0.000481365      0.666429  -0.000258186      0.666429  -0.000258186     -0.333215   0.000111594
       14996.8     -0.332857   0.000482555      0.666428  -0.000258862      0.666428  -0.000258862     -0.333214   0.000111852
       15066.1     -0.332856   0.000483748      0.666427  -0.000259539      0.666427  -0.000259539     -0.333214   0.000112109
       15135.6     -0.332855   0.000484943      0.666427  -0.000260219      0.666427  -0.000260219     -0.333214   0.000112367
       15205.5     -0.332854   0.000486143      0.666426    -0.0002609      0.666426    -0.0002609     -0.333214   0.000112626
       15275.7     -0.332853   0.000487345      0.666426  -0.000261584      0.666426  -0.000261584     -0.333213   0.000112886
       15346.2     -0.332851    0.00048855      0.666425  -0.000262269      0.666425  -0.000262269     -0.333213   0.000113146
         15417      -0.33285   0.000489758      0.666425  -0.000262956      0.666425  -0.000262956     -0.333213   0.000113406
       15488.2     -0.332849    0.00049097      0.666424  -0.000263645      0.666424  -0.000263645     -0.333213   0.000113667
       15559.7     -0.332848   0.000492185      0.666424  -0.000264337      0.666424  -0.000264337     -0.333212   0.000113929
       15631.5     -0.332847   0.000493403      0.666423   -0.00026503      0.666423   -0.00026503     -0.333212   0.000114192
       15703.6     -0.332846   0.000494624      0.666423  -0.000265725      0.666423  -0.000265725     -0.333212   0.000114455
       15776.1     -0.332845   0.000495848      0.666422  -0.000266422      0.666422  -0.000266422     -0.333211   0.000114718
       15848.9     -0.332844   0.000497076      0.666422  -0.000267121      0.666422  -0.000267121     -0.333211   0.000114983
       15922.1     -0.332843   0.000498307      0.666421  -0.000267823      0.666421  -0.000267823     -0.333211   0.000115247
       15995.6     -0.332842   0.000499541      0.666421  -0.000268526      0.666421  -0.000268526     -0.333211   0.000115513
       16069.4     -0.332841   0.000500778       0.66642  -0.000269231       0.66642  -0.000269231      -0.33321   0.000115779
       16143.6      -0.33284   0.000502019       0.66642  -0.000269938       0.66642  -0.000269938      -0.33321   0.000116046
       16218.1     -0.332839   0.000503262      0.666419  -0.000270648      0.666419  -0.000270648      -0.33321   0.000116313
         16293     -0.332838    0.00050451      0.666419  -0.000271359      0.666419  -0.000271359      -0.33321   0.000116581
       16368.2     -0.332837    0.00050576      0.666418  -0.000272072      0.666418  -0.000272072     -0.333209   0.000116849
       16443.7     -0.332836   0.000507013      0.666417  -0.000272788      0.666417  -0.000272788     -0.333209   0.000117119
       16519.6     -0.332835    0.00050827      0.666417  -0.000273505      0.666417  -0.000273505     -0.333209   0.000117388
       16595.9     -0.332833   0.000509531      0.666416  -0.000274225      0.666416  -0.000274225     -0.333209   0.000117659
       16672.5     -0.332832   0.000510794      0.666416  -0.000274946      0.666416  -0.000274946     -0.333208    0.00011793
       16749.4     -0.332831   0.000512061      0.666415   -0.00027567      0.666415   -0.00027567     -0.333208   0.000118201
       16826.7      -0.33283   0.000513331      0.666415  -0.000276396      0.666415  -0.000276396     -0.333208   0.000118474
       16904.4     -0.332829   0.000514605      0.666414  -0.000277123      0.666414  -0.000277123     -0.333207   0.000118746
       16982.4     -0.332828   0.000515882      0.666414  -0.000277853      0.666414  -0.000277853     -0.333207    0.00011902
       17060.8     -0.332827   0.000517162      0.666413  -0.000278585      0.666413  -0.000278585     -0.333207   0.000119294
       17139.6     -0.332826   0.000518445      0.666413   -0.00027932      0.666413   -0.00027932     -0.333207   0.000119569
       17218.7     -0.332825   0.000519732      0.666412  -0.000280056      0.666412  -0.000280056     -0.333206   0.000119844
       17298.2     -0.332824   0.000521023      0.666411  -0.000280794      0.666411  -0.000280794     -0.333206    0.00012012
         17378     -0.332822   0.000522317      0.666411  -0.000281535      0.666411  -0.000281535     -0.333206   0.000120397
       17458.2     -0.332821   0.000523614       0.66641  -0.000282277       0.66641  -0.000282277     -0.333206   0.000120674
       17538.8      -0.33282   0.000524914       0.66641  -0.000283022       0.66641  -0.000283022     -0.333205   0.000120952
       17619.8     -0.332819   0.000526218      0.666409  -0.000283769      0.666409  -0.000283769     -0.333205   0.000121231
       17701.1     -0.332818   0.000527526      0.666409  -0.000284518      0.666409  -0.000284518     -0.333205    0.00012151
       17782.8     -0.332817   0.000528837      0.666408   -0.00028527      0.666408   -0.00028527     -0.333204    0.00012179
       17864.9     -0.332816   0.000530151      0.666407  -0.000286023      0.666407  -0.000286023     -0.333204    0.00012207
       17947.3     -0.332815   0.000531469      0.666407  -0.000286779      0.666407  -0.000286779     -0.333204   0.000122352
       18030.2     -0.332814    0.00053279      0.666406  -0.000287536      0.666406  -0.000287536     -0.333204   0.000122633
       18113.4     -0.332812   0.000534115      0.666406  -0.000288296      0.666406  -0.000288296     -0.333203   0.000122916
         18197     -0.332811   0.000535443      0.666405  -0.000289059      0.666405  -0.000289059     -0.333203   0.000123199
         18281      -0.33281   0.000536775      0.666405  -0.000289823      0.666405  -0.000289823     -0.333203   0.000123483
       18365.4     -0.332809   0.000538111      0.666404   -0.00029059      0.666404   -0.00029059     -0.333202   0.000123767
       18450.2     -0.332808   0.000539449      0.666404  -0.000291359      0.666404  -0.000291359     -0.333202   0.000124052
       18535.3     -0.332807   0.000540792      0.666403   -0.00029213      0.666403   -0.00029213     -0.333202   0.000124338
       18620.9     -0.332806   0.000542138      0.666402  -0.000292903      0.666402  -0.000292903     -0.333202   0.000124624
       18706.8     -0.332804   0.000543487      0.666402  -0.000293678      0.666402  -0.000293678     -0.333201   0.000124911
       18793.2     -0.332803   0.000544841      0.666401  -0.000294456      0.666401  -0.000294456     -0.333201   0.000125199
       18879.9     -0.332802   0.000546197      0.666401  -0.000295236      0.666401  -0.000295236     -0.333201   0.000125487
       18967.1     -0.332801   0.000547557        0.6664  -0.000296019        0.6664  -0.000296019       -0.3332   0.000125776
       19054.6       -0.3328   0.000548921      0.666399  -0.000296803      0.666399  -0.000296803       -0.3332   0.000126066
       19142.6     -0.332799   0.000550289      0.666399   -0.00029759      0.666399   -0.00029759       -0.3332   0.000126356
       19230.9     -0.332797    0.00055166      0.666398  -0.000298379      0.666398  -0.000298379       -0.3332   0.000126647
       19319.7     -0.332796   0.000553035      0.666398  -0.000299171      0.666398  -0.000299171     -0.333199   0.000126939
       19408.9     -0.332795   0.000554413      0.666397  -0.000299965      0.666397  -0.000299965     -0.333199   0.000127231
       19498.4     -0.332794   0.000555795      0.666397  -0.000300761      0.666397  -0.000300761     -0.333199   0.000127524
       19588.4     -0.332793   0.000557181      0.666396  -0.000301559      0.666396  -0.000301559     -0.333198   0.000127818
       19678.9     -0.332792    0.00055857      0.666395   -0.00030236      0.666395   -0.00030236     -0.333198   0.000128113
       19769.7      -0.33279   0.000559963      0.666395  -0.000303163      0.666395  -0.000303163     -0.333198   0.000128408
       19860.9     -0.332789    0.00056136      0.666394  -0.000303968      0.666394  -0.000303968     -0.333198   0.000128703
       19952.6     -0.332788   0.000562761      0.666394  -0.000304776      0.666394  -0.000304776     -0.333197      0.000129
       20044.7     -0.332787   0.000564165      0.666393  -0.000305586      0.666393  -0.000305586     -0.333197   0.000129297
       20137.2     -0.332786   0.000565573      0.666392  -0.000306398      0.666392  -0.000306398     -0.333197   0.000129595
       20230.2     -0.332784   0.000566984      0.666392  -0.000307213      0.666392  -0.000307213     -0.333196   0.000129893
       20323.6     -0.332783     0.0005684      0.666391  -0.000308031      0.666391  -0.000308031     -0.333196   0.000130192
