! NPort=2 DATA=4501 NOISE=0 GROUPDELAY=0 COMPLEX_DATAFORMAT=RI
! NumOfBlock=1 NumOfParam=0
!
! .MODEL Smodel S TSTONEFILE=./link_rx/link_rx_l2/lr10000_10000000000000dec_0_1.s2p TYPE=S
!   -- The above .MODEL line can be used for the S element in the netlist.
!
!
# Hz S RI R             50
         10000     -0.332939   0.000388825      0.666469  -0.000206138      0.666469  -0.000206138     -0.333235  9.13466e-005
       10046.2     -0.332938   0.000389775      0.666469  -0.000206667      0.666469  -0.000206667     -0.333235   9.1557e-005
       10092.5     -0.332937   0.000390728      0.666468  -0.000207197      0.666468  -0.000207197     -0.333234   9.1768e-005
       10139.1     -0.332936   0.000391682      0.666468  -0.000207729      0.666468  -0.000207729     -0.333234  9.19794e-005
       10185.9     -0.332935    0.00039264      0.666467  -0.000208263      0.666467  -0.000208263     -0.333234  9.21913e-005
       10232.9     -0.332935   0.000393599      0.666467  -0.000208798      0.666467  -0.000208798     -0.333234  9.24037e-005
       10280.2     -0.332934   0.000394562      0.666467  -0.000209334      0.666467  -0.000209334     -0.333234  9.26165e-005
       10327.6     -0.332933   0.000395526      0.666466  -0.000209872      0.666466  -0.000209872     -0.333233  9.28299e-005
       10375.3     -0.332932   0.000396494      0.666466  -0.000210412      0.666466  -0.000210412     -0.333233  9.30438e-005
       10423.2     -0.332931   0.000397463      0.666465  -0.000210953      0.666465  -0.000210953     -0.333233  9.32581e-005
       10471.3      -0.33293   0.000398435      0.666465  -0.000211495      0.666465  -0.000211495     -0.333233   9.3473e-005
       10519.6     -0.332929    0.00039941      0.666464  -0.000212039      0.666464  -0.000212039     -0.333232  9.36883e-005
       10568.2     -0.332929   0.000400387      0.666464  -0.000212585      0.666464  -0.000212585     -0.333232  9.39041e-005
         10617     -0.332928   0.000401367      0.666464  -0.000213132      0.666464  -0.000213132     -0.333232  9.41205e-005
         10666     -0.332927   0.000402349      0.666463   -0.00021368      0.666463   -0.00021368     -0.333232  9.43373e-005
       10715.2     -0.332926   0.000403334      0.666463   -0.00021423      0.666463   -0.00021423     -0.333232  9.45546e-005
       10764.7     -0.332925   0.000404321      0.666462  -0.000214782      0.666462  -0.000214782     -0.333231  9.47725e-005
       10814.3     -0.332924   0.000405311      0.666462  -0.000215335      0.666462  -0.000215335     -0.333231  9.49908e-005
       10864.3     -0.332923   0.000406303      0.666461   -0.00021589      0.666461   -0.00021589     -0.333231  9.52096e-005
       10914.4     -0.332922   0.000407298      0.666461  -0.000216446      0.666461  -0.000216446     -0.333231   9.5429e-005
       10964.8     -0.332922   0.000408295      0.666461  -0.000217004      0.666461  -0.000217004     -0.333231  9.56488e-005
       11015.4     -0.332921   0.000409295       0.66646  -0.000217563       0.66646  -0.000217563      -0.33323  9.58691e-005
       11066.2      -0.33292   0.000410298       0.66646  -0.000218124       0.66646  -0.000218124      -0.33323    9.609e-005
       11117.3     -0.332919   0.000411303      0.666459  -0.000218687      0.666459  -0.000218687      -0.33323  9.63114e-005
       11168.6     -0.332918   0.000412311      0.666459  -0.000219251      0.666459  -0.000219251      -0.33323  9.65332e-005
       11220.2     -0.332917   0.000413321      0.666458  -0.000219816      0.666458  -0.000219816     -0.333229  9.67556e-005
         11272     -0.332916   0.000414334      0.666458  -0.000220383      0.666458  -0.000220383     -0.333229  9.69785e-005
         11324     -0.332915    0.00041535      0.666457  -0.000220952      0.666457  -0.000220952     -0.333229  9.72019e-005
       11376.3     -0.332914   0.000416368      0.666457  -0.000221523      0.666457  -0.000221523     -0.333229  9.74259e-005
       11428.8     -0.332914   0.000417389      0.666457  -0.000222095      0.666457  -0.000222095     -0.333229  9.76503e-005
       11481.5     -0.332913   0.000418412      0.666456  -0.000222668      0.666456  -0.000222668     -0.333228  9.78752e-005
       11534.5     -0.332912   0.000419438      0.666456  -0.000223243      0.666456  -0.000223243     -0.333228  9.81007e-005
       11587.8     -0.332911   0.000420467      0.666455   -0.00022382      0.666455   -0.00022382     -0.333228  9.83267e-005
       11641.3      -0.33291   0.000421498      0.666455  -0.000224399      0.666455  -0.000224399     -0.333228  9.85532e-005
         11695     -0.332909   0.000422532      0.666454  -0.000224979      0.666454  -0.000224979     -0.333227  9.87803e-005
         11749     -0.332908   0.000423569      0.666454   -0.00022556      0.666454   -0.00022556     -0.333227  9.90078e-005
       11803.2     -0.332907   0.000424608      0.666453  -0.000226144      0.666453  -0.000226144     -0.333227  9.92359e-005
       11857.7     -0.332906    0.00042565      0.666453  -0.000226728      0.666453  -0.000226728     -0.333227  9.94645e-005
       11912.4     -0.332905   0.000426695      0.666452  -0.000227315      0.666452  -0.000227315     -0.333226  9.96936e-005
       11967.4     -0.332904   0.000427743      0.666452  -0.000227903      0.666452  -0.000227903     -0.333226  9.99233e-005
       12022.6     -0.332904   0.000428793      0.666451  -0.000228493      0.666451  -0.000228493     -0.333226   0.000100153
       12078.1     -0.332903   0.000429846      0.666451  -0.000229085      0.666451  -0.000229085     -0.333226   0.000100384
       12133.9     -0.332902   0.000430902      0.666451  -0.000229678      0.666451  -0.000229678     -0.333226   0.000100615
       12189.9     -0.332901    0.00043196       0.66645  -0.000230273       0.66645  -0.000230273     -0.333225   0.000100847
       12246.2       -0.3329   0.000433021       0.66645  -0.000230869       0.66645  -0.000230869     -0.333225    0.00010108
       12302.7     -0.332899   0.000434085      0.666449  -0.000231467      0.666449  -0.000231467     -0.333225   0.000101312
       12359.5     -0.332898   0.000435151      0.666449  -0.000232067      0.666449  -0.000232067     -0.333225   0.000101546
       12416.5     -0.332897   0.000436221      0.666448  -0.000232669      0.666448  -0.000232669     -0.333224    0.00010178
       12473.8     -0.332896   0.000437293      0.666448  -0.000233272      0.666448  -0.000233272     -0.333224   0.000102014
       12531.4     -0.332895   0.000438368      0.666447  -0.000233877      0.666447  -0.000233877     -0.333224   0.000102249
       12589.3     -0.332894   0.000439446      0.666447  -0.000234484      0.666447  -0.000234484     -0.333224   0.000102485
       12647.4     -0.332893   0.000440526      0.666446  -0.000235092      0.666446  -0.000235092     -0.333223   0.000102721
       12705.7     -0.332892   0.000441609      0.666446  -0.000235702      0.666446  -0.000235702     -0.333223   0.000102957
       12764.4     -0.332891   0.000442696      0.666445  -0.000236314      0.666445  -0.000236314     -0.333223   0.000103195
       12823.3      -0.33289   0.000443785      0.666445  -0.000236928      0.666445  -0.000236928     -0.333223   0.000103432
       12882.5     -0.332889   0.000444876      0.666444  -0.000237543      0.666444  -0.000237543     -0.333223   0.000103671
         12942     -0.332888   0.000445971      0.666444   -0.00023816      0.666444   -0.00023816     -0.333222   0.000103909
       13001.7     -0.332888   0.000447068      0.666443  -0.000238779      0.666443  -0.000238779     -0.333222   0.000104149
       13061.7     -0.332887   0.000448169      0.666443  -0.000239399      0.666443  -0.000239399     -0.333222   0.000104389
         13122     -0.332886   0.000449272      0.666442  -0.000240022      0.666442  -0.000240022     -0.333222   0.000104629
       13182.6     -0.332885   0.000450378      0.666442  -0.000240646      0.666442  -0.000240646     -0.333221    0.00010487
       13243.4     -0.332884   0.000451487      0.666442  -0.000241271      0.666442  -0.000241271     -0.333221   0.000105112
       13304.5     -0.332883   0.000452598      0.666441  -0.000241899      0.666441  -0.000241899     -0.333221   0.000105354
         13366     -0.332882   0.000453713      0.666441  -0.000242528      0.666441  -0.000242528     -0.333221   0.000105597
       13427.6     -0.332881   0.000454831       0.66644   -0.00024316       0.66644   -0.00024316      -0.33322    0.00010584
       13489.6      -0.33288   0.000455951       0.66644  -0.000243792       0.66644  -0.000243792      -0.33322   0.000106084
       13551.9     -0.332879   0.000457075      0.666439  -0.000244427      0.666439  -0.000244427      -0.33322   0.000106328
       13614.4     -0.332878   0.000458201      0.666439  -0.000245064      0.666439  -0.000245064      -0.33322   0.000106573
       13677.3     -0.332877    0.00045933      0.666438  -0.000245702      0.666438  -0.000245702     -0.333219   0.000106818
       13740.4     -0.332876   0.000460462      0.666438  -0.000246342      0.666438  -0.000246342     -0.333219   0.000107064
       13803.8     -0.332875   0.000461597      0.666437  -0.000246984      0.666437  -0.000246984     -0.333219   0.000107311
       13867.6     -0.332874   0.000462735      0.666437  -0.000247628      0.666437  -0.000247628     -0.333219   0.000107558
       13931.6     -0.332873   0.000463876      0.666436  -0.000248273      0.666436  -0.000248273     -0.333218   0.000107806
       13995.9     -0.332872    0.00046502      0.666436  -0.000248921      0.666436  -0.000248921     -0.333218   0.000108054
       14060.5     -0.332871   0.000466167      0.666435   -0.00024957      0.666435   -0.00024957     -0.333218   0.000108303
       14125.4      -0.33287   0.000467317      0.666435  -0.000250221      0.666435  -0.000250221     -0.333218   0.000108553
       14190.6     -0.332869    0.00046847      0.666434  -0.000250874      0.666434  -0.000250874     -0.333217   0.000108803
       14256.1     -0.332868   0.000469626      0.666434  -0.000251529      0.666434  -0.000251529     -0.333217   0.000109053
       14321.9     -0.332867   0.000470785      0.666433  -0.000252185      0.666433  -0.000252185     -0.333217   0.000109305
         14388     -0.332866   0.000471947      0.666433  -0.000252844      0.666433  -0.000252844     -0.333217   0.000109556
       14454.4     -0.332865   0.000473113      0.666432  -0.000253504      0.666432  -0.000253504     -0.333216   0.000109809
       14521.1     -0.332864   0.000474281      0.666432  -0.000254167      0.666432  -0.000254167     -0.333216   0.000110062
       14588.1     -0.332863   0.000475452      0.666431  -0.000254831      0.666431  -0.000254831     -0.333216   0.000110315
       14655.5     -0.332862   0.000476626      0.666431  -0.000255497      0.666431  -0.000255497     -0.333216   0.000110569
       14723.1     -0.332861   0.000477803       0.66643  -0.000256165       0.66643  -0.000256165     -0.333215   0.000110824
       14791.1      -0.33286   0.000478984       0.66643  -0.000256835       0.66643  -0.000256835     -0.333215   0.000111079
       14859.4     -0.332859   0.000480167      0.666429  -0.000257507      0.666429  -0.000257507     -0.333215   0.000111335
       14927.9     -0.332858   0.000481354      0.666429   -0.00025818      0.666429   -0.00025818     -0.333215   0.000111592
       14996.8     -0.332857   0.000482543      0.666428  -0.000258856      0.666428  -0.000258856     -0.333214   0.000111849
       15066.1     -0.332856   0.000483736      0.666427  -0.000259533      0.666427  -0.000259533     -0.333214   0.000112106
       15135.6     -0.332855   0.000484932      0.666427  -0.000260213      0.666427  -0.000260213     -0.333214   0.000112364
       15205.5     -0.332854   0.000486131      0.666426  -0.000260894      0.666426  -0.000260894     -0.333214   0.000112623
       15275.7     -0.332853   0.000487333      0.666426  -0.000261578      0.666426  -0.000261578     -0.333213   0.000112883
       15346.2     -0.332852   0.000488538      0.666425  -0.000262263      0.666425  -0.000262263     -0.333213   0.000113143
         15417      -0.33285   0.000489747      0.666425   -0.00026295      0.666425   -0.00026295     -0.333213   0.000113403
       15488.2     -0.332849   0.000490958      0.666424   -0.00026364      0.666424   -0.00026364     -0.333213   0.000113665
       15559.7     -0.332848   0.000492173      0.666424  -0.000264331      0.666424  -0.000264331     -0.333212   0.000113926
       15631.5     -0.332847   0.000493391      0.666423  -0.000265024      0.666423  -0.000265024     -0.333212   0.000114189
       15703.6     -0.332846   0.000494612      0.666423  -0.000265719      0.666423  -0.000265719     -0.333212   0.000114452
       15776.1     -0.332845   0.000495837      0.666422  -0.000266416      0.666422  -0.000266416     -0.333211   0.000114715
       15848.9     -0.332844   0.000497064      0.666422  -0.000267116      0.666422  -0.000267116     -0.333211    0.00011498
       15922.1     -0.332843   0.000498295      0.666421  -0.000267817      0.666421  -0.000267817     -0.333211   0.000115245
       15995.6     -0.332842   0.000499529      0.666421   -0.00026852      0.666421   -0.00026852     -0.333211    0.00011551
       16069.4     -0.332841   0.000500766       0.66642  -0.000269225       0.66642  -0.000269225      -0.33321   0.000115776
       16143.6      -0.33284   0.000502007       0.66642  -0.000269932       0.66642  -0.000269932      -0.33321   0.000116043
       16218.1     -0.332839   0.000503251      0.666419  -0.000270642      0.666419  -0.000270642      -0.33321    0.00011631
         16293     -0.332838   0.000504498      0.666419  -0.000271353      0.666419  -0.000271353      -0.33321   0.000116578
       16368.2     -0.332837   0.000505748      0.666418  -0.000272066      0.666418  -0.000272066     -0.333209   0.000116846
       16443.7     -0.332836   0.000507001      0.666417  -0.000272782      0.666417  -0.000272782     -0.333209   0.000117116
       16519.6     -0.332835   0.000508258      0.666417  -0.000273499      0.666417  -0.000273499     -0.333209   0.000117385
       16595.9     -0.332833   0.000509518      0.666416  -0.000274219      0.666416  -0.000274219     -0.333209   0.000117656
       16672.5     -0.332832   0.000510782      0.666416   -0.00027494      0.666416   -0.00027494     -0.333208   0.000117927
       16749.4     -0.332831   0.000512049      0.666415  -0.000275664      0.666415  -0.000275664     -0.333208   0.000118198
       16826.7      -0.33283   0.000513319      0.666415   -0.00027639      0.666415   -0.00027639     -0.333208   0.000118471
       16904.4     -0.332829   0.000514592      0.666414  -0.000277117      0.666414  -0.000277117     -0.333207   0.000118743
       16982.4     -0.332828   0.000515869      0.666414  -0.000277847      0.666414  -0.000277847     -0.333207   0.000119017
       17060.8     -0.332827   0.000517149      0.666413  -0.000278579      0.666413  -0.000278579     -0.333207   0.000119291
       17139.6     -0.332826   0.000518433      0.666413  -0.000279313      0.666413  -0.000279313     -0.333207   0.000119566
       17218.7     -0.332825    0.00051972      0.666412   -0.00028005      0.666412   -0.00028005     -0.333206   0.000119841
       17298.2     -0.332824    0.00052101      0.666411  -0.000280788      0.666411  -0.000280788     -0.333206   0.000120117
         17378     -0.332822   0.000522304      0.666411  -0.000281529      0.666411  -0.000281529     -0.333206   0.000120394
       17458.2     -0.332821   0.000523601       0.66641  -0.000282271       0.66641  -0.000282271     -0.333206   0.000120671
       17538.8      -0.33282   0.000524902       0.66641  -0.000283016       0.66641  -0.000283016     -0.333205   0.000120949
       17619.8     -0.332819   0.000526206      0.666409  -0.000283763      0.666409  -0.000283763     -0.333205   0.000121228
       17701.1     -0.332818   0.000527513      0.666409  -0.000284512      0.666409  -0.000284512     -0.333205   0.000121507
       17782.8     -0.332817   0.000528824      0.666408  -0.000285263      0.666408  -0.000285263     -0.333204   0.000121787
       17864.9     -0.332816   0.000530139      0.666407  -0.000286017      0.666407  -0.000286017     -0.333204   0.000122067
       17947.3     -0.332815   0.000531456      0.666407  -0.000286772      0.666407  -0.000286772     -0.333204   0.000122348
       18030.2     -0.332814   0.000532778      0.666406   -0.00028753      0.666406   -0.00028753     -0.333204    0.00012263
       18113.4     -0.332812   0.000534102      0.666406   -0.00028829      0.666406   -0.00028829     -0.333203   0.000122913
         18197     -0.332811   0.000535431      0.666405  -0.000289052      0.666405  -0.000289052     -0.333203   0.000123196
         18281      -0.33281   0.000536763      0.666405  -0.000289817      0.666405  -0.000289817     -0.333203    0.00012348
       18365.4     -0.332809   0.000538098      0.666404  -0.000290583      0.666404  -0.000290583     -0.333202   0.000123764
       18450.2     -0.332808   0.000539437      0.666404  -0.000291352      0.666404  -0.000291352     -0.333202   0.000124049
       18535.3     -0.332807   0.000540779      0.666403  -0.000292123      0.666403  -0.000292123     -0.333202   0.000124335
       18620.9     -0.332806   0.000542125      0.666402  -0.000292896      0.666402  -0.000292896     -0.333202   0.000124621
       18706.8     -0.332804   0.000543475      0.666402  -0.000293672      0.666402  -0.000293672     -0.333201   0.000124908
       18793.2     -0.332803   0.000544828      0.666401   -0.00029445      0.666401   -0.00029445     -0.333201   0.000125196
       18879.9     -0.332802   0.000546184      0.666401   -0.00029523      0.666401   -0.00029523     -0.333201   0.000125484
       18967.1     -0.332801   0.000547545        0.6664  -0.000296012        0.6664  -0.000296012       -0.3332   0.000125773
       19054.6       -0.3328   0.000548908      0.666399  -0.000296797      0.666399  -0.000296797       -0.3332   0.000126063
       19142.6     -0.332799   0.000550276      0.666399  -0.000297584      0.666399  -0.000297584       -0.3332   0.000126353
       19230.9     -0.332797   0.000551647      0.666398  -0.000298373      0.666398  -0.000298373       -0.3332   0.000126644
       19319.7     -0.332796   0.000553022      0.666398  -0.000299164      0.666398  -0.000299164     -0.333199   0.000126936
       19408.9     -0.332795     0.0005544      0.666397  -0.000299958      0.666397  -0.000299958     -0.333199   0.000127228
       19498.4     -0.332794   0.000555782      0.666397  -0.000300754      0.666397  -0.000300754     -0.333199   0.000127521
       19588.4     -0.332793   0.000557168      0.666396  -0.000301552      0.666396  -0.000301552     -0.333198   0.000127815
       19678.9     -0.332792   0.000558557      0.666395  -0.000302353      0.666395  -0.000302353     -0.333198   0.000128109
       19769.7      -0.33279    0.00055995      0.666395  -0.000303156      0.666395  -0.000303156     -0.333198   0.000128404
       19860.9     -0.332789   0.000561347      0.666394  -0.000303962      0.666394  -0.000303962     -0.333198     0.0001287
       19952.6     -0.332788   0.000562747      0.666394  -0.000304769      0.666394  -0.000304769     -0.333197   0.000128996
       20044.7     -0.332787   0.000564151      0.666393  -0.000305579      0.666393  -0.000305579     -0.333197   0.000129294
       20137.2     -0.332786   0.000565559      0.666392  -0.000306392      0.666392  -0.000306392     -0.333197   0.000129591
       20230.2     -0.332784   0.000566971      0.666392  -0.000307207      0.666392  -0.000307207     -0.333196    0.00012989
       20323.6     -0.332783   0.000568386      0.666391  -0.000308024      0.666391  -0.000308024     -0.333196   0.000130189
