! NPort=2 DATA=4501 NOISE=0 GROUPDELAY=0 COMPLEX_DATAFORMAT=RI
! NumOfBlock=1 NumOfParam=0
!
! .MODEL Smodel S TSTONEFILE=./link_rx/link_rx_l2/lr10000_10000000000000dec_0_3.s2p TYPE=S
!   -- The above .MODEL line can be used for the S element in the netlist.
!
!
# Hz S RI R             50
         10000    0.00022168    0.00020556 -1.85527e-005 -3.04751e-005 -1.85527e-005 -3.04751e-005     -0.999112   0.000891413
       10046.2   0.000222153   0.000206033 -1.85956e-005 -3.05729e-005 -1.85956e-005 -3.05729e-005      -0.99911   0.000893627
       10092.5   0.000222627   0.000206508 -1.86385e-005  -3.0671e-005 -1.86385e-005  -3.0671e-005     -0.999108   0.000895846
       10139.1   0.000223102   0.000206984 -1.86816e-005 -3.07696e-005 -1.86816e-005 -3.07696e-005     -0.999106   0.000898072
       10185.9   0.000223578   0.000207461 -1.87247e-005 -3.08684e-005 -1.87247e-005 -3.08684e-005     -0.999104   0.000900303
       10232.9   0.000224055   0.000207939  -1.8768e-005 -3.09676e-005  -1.8768e-005 -3.09676e-005     -0.999102    0.00090254
       10280.2   0.000224533   0.000208418 -1.88113e-005 -3.10672e-005 -1.88113e-005 -3.10672e-005       -0.9991   0.000904784
       10327.6   0.000225012   0.000208898 -1.88548e-005 -3.11672e-005 -1.88548e-005 -3.11672e-005     -0.999098   0.000907033
       10375.3   0.000225493   0.000209379 -1.88983e-005 -3.12675e-005 -1.88983e-005 -3.12675e-005     -0.999097   0.000909288
       10423.2   0.000225974   0.000209862  -1.8942e-005 -3.13681e-005  -1.8942e-005 -3.13681e-005     -0.999095   0.000911548
       10471.3   0.000226457   0.000210345 -1.89857e-005 -3.14691e-005 -1.89857e-005 -3.14691e-005     -0.999093   0.000913815
       10519.6    0.00022694    0.00021083 -1.90296e-005 -3.15705e-005 -1.90296e-005 -3.15705e-005     -0.999091   0.000916088
       10568.2   0.000227425   0.000211316 -1.90735e-005 -3.16723e-005 -1.90735e-005 -3.16723e-005     -0.999089   0.000918367
         10617   0.000227911   0.000211802 -1.91176e-005 -3.17744e-005 -1.91176e-005 -3.17744e-005     -0.999087   0.000920652
         10666   0.000228398    0.00021229 -1.91617e-005 -3.18769e-005 -1.91617e-005 -3.18769e-005     -0.999085   0.000922943
       10715.2   0.000228886    0.00021278  -1.9206e-005 -3.19798e-005  -1.9206e-005 -3.19798e-005     -0.999083    0.00092524
       10764.7   0.000229376    0.00021327 -1.92504e-005  -3.2083e-005 -1.92504e-005  -3.2083e-005     -0.999081   0.000927543
       10814.3   0.000229866   0.000213761 -1.92948e-005 -3.21866e-005 -1.92948e-005 -3.21866e-005     -0.999079   0.000929852
       10864.3   0.000230358   0.000214254 -1.93394e-005 -3.22906e-005 -1.93394e-005 -3.22906e-005     -0.999077   0.000932167
       10914.4    0.00023085   0.000214747 -1.93841e-005  -3.2395e-005 -1.93841e-005  -3.2395e-005     -0.999075   0.000934489
       10964.8   0.000231344   0.000215242 -1.94288e-005 -3.24997e-005 -1.94288e-005 -3.24997e-005     -0.999073   0.000936816
       11015.4   0.000231839   0.000215738 -1.94737e-005 -3.26048e-005 -1.94737e-005 -3.26048e-005     -0.999071    0.00093915
       11066.2   0.000232335   0.000216235 -1.95187e-005 -3.27103e-005 -1.95187e-005 -3.27103e-005     -0.999069    0.00094149
       11117.3   0.000232832   0.000216733 -1.95638e-005 -3.28162e-005 -1.95638e-005 -3.28162e-005     -0.999067   0.000943836
       11168.6   0.000233331   0.000217233  -1.9609e-005 -3.29225e-005  -1.9609e-005 -3.29225e-005     -0.999065   0.000946188
       11220.2    0.00023383   0.000217733 -1.96543e-005 -3.30292e-005 -1.96543e-005 -3.30292e-005     -0.999063   0.000948547
         11272   0.000234331   0.000218235 -1.96997e-005 -3.31362e-005 -1.96997e-005 -3.31362e-005     -0.999061   0.000950912
         11324   0.000234833   0.000218738 -1.97452e-005 -3.32436e-005 -1.97452e-005 -3.32436e-005     -0.999059   0.000953283
       11376.3   0.000235336   0.000219242 -1.97908e-005 -3.33515e-005 -1.97908e-005 -3.33515e-005     -0.999057    0.00095566
       11428.8    0.00023584   0.000219747 -1.98365e-005 -3.34597e-005 -1.98365e-005 -3.34597e-005     -0.999055   0.000958044
       11481.5   0.000236345   0.000220253 -1.98823e-005 -3.35683e-005 -1.98823e-005 -3.35683e-005     -0.999053   0.000960434
       11534.5   0.000236851   0.000220761 -1.99283e-005 -3.36773e-005 -1.99283e-005 -3.36773e-005     -0.999051    0.00096283
       11587.8   0.000237359   0.000221269 -1.99743e-005 -3.37867e-005 -1.99743e-005 -3.37867e-005     -0.999049   0.000965233
       11641.3   0.000237868   0.000221779 -2.00205e-005 -3.38965e-005 -2.00205e-005 -3.38965e-005     -0.999047   0.000967642
         11695   0.000238378    0.00022229 -2.00667e-005 -3.40067e-005 -2.00667e-005 -3.40067e-005     -0.999045   0.000970058
         11749   0.000238889   0.000222802 -2.01131e-005 -3.41173e-005 -2.01131e-005 -3.41173e-005     -0.999043    0.00097248
       11803.2   0.000239401   0.000223316 -2.01595e-005 -3.42283e-005 -2.01595e-005 -3.42283e-005     -0.999041   0.000974908
       11857.7   0.000239915    0.00022383 -2.02061e-005 -3.43398e-005 -2.02061e-005 -3.43398e-005     -0.999039   0.000977343
       11912.4   0.000240429   0.000224346 -2.02528e-005 -3.44516e-005 -2.02528e-005 -3.44516e-005     -0.999037   0.000979784
       11967.4   0.000240945   0.000224863 -2.02996e-005 -3.45638e-005 -2.02996e-005 -3.45638e-005     -0.999035   0.000982232
       12022.6   0.000241462   0.000225381 -2.03465e-005 -3.46764e-005 -2.03465e-005 -3.46764e-005     -0.999032   0.000984686
       12078.1    0.00024198     0.0002259 -2.03935e-005 -3.47895e-005 -2.03935e-005 -3.47895e-005      -0.99903   0.000987147
       12133.9     0.0002425    0.00022642 -2.04406e-005  -3.4903e-005 -2.04406e-005  -3.4903e-005     -0.999028   0.000989614
       12189.9    0.00024302   0.000226942 -2.04878e-005 -3.50168e-005 -2.04878e-005 -3.50168e-005     -0.999026   0.000992088
       12246.2   0.000243542   0.000227465 -2.05352e-005 -3.51311e-005 -2.05352e-005 -3.51311e-005     -0.999024   0.000994569
       12302.7   0.000244065   0.000227989 -2.05826e-005 -3.52458e-005 -2.05826e-005 -3.52458e-005     -0.999022   0.000997056
       12359.5   0.000244589   0.000228514 -2.06302e-005  -3.5361e-005 -2.06302e-005  -3.5361e-005      -0.99902    0.00099955
       12416.5   0.000245115   0.000229041 -2.06778e-005 -3.54765e-005 -2.06778e-005 -3.54765e-005     -0.999018    0.00100205
       12473.8   0.000245641   0.000229569 -2.07256e-005 -3.55925e-005 -2.07256e-005 -3.55925e-005     -0.999016    0.00100456
       12531.4   0.000246169   0.000230097 -2.07735e-005 -3.57089e-005 -2.07735e-005 -3.57089e-005     -0.999014    0.00100707
       12589.3   0.000246698   0.000230628 -2.08215e-005 -3.58258e-005 -2.08215e-005 -3.58258e-005     -0.999011    0.00100959
       12647.4   0.000247228   0.000231159 -2.08696e-005  -3.5943e-005 -2.08696e-005  -3.5943e-005     -0.999009    0.00101212
       12705.7    0.00024776   0.000231691 -2.09178e-005 -3.60607e-005 -2.09178e-005 -3.60607e-005     -0.999007    0.00101465
       12764.4   0.000248292   0.000232225 -2.09662e-005 -3.61788e-005 -2.09662e-005 -3.61788e-005     -0.999005    0.00101719
       12823.3   0.000248826    0.00023276 -2.10146e-005 -3.62974e-005 -2.10146e-005 -3.62974e-005     -0.999003    0.00101974
       12882.5   0.000249361   0.000233297 -2.10632e-005 -3.64164e-005 -2.10632e-005 -3.64164e-005     -0.999001     0.0010223
         12942   0.000249898   0.000233834 -2.11118e-005 -3.65358e-005 -2.11118e-005 -3.65358e-005     -0.998999    0.00102486
       13001.7   0.000250435   0.000234373 -2.11606e-005 -3.66557e-005 -2.11606e-005 -3.66557e-005     -0.998996    0.00102742
       13061.7   0.000250974   0.000234913 -2.12095e-005  -3.6776e-005 -2.12095e-005  -3.6776e-005     -0.998994       0.00103
         13122   0.000251514   0.000235454 -2.12585e-005 -3.68967e-005 -2.12585e-005 -3.68967e-005     -0.998992    0.00103258
       13182.6   0.000252056   0.000235996 -2.13077e-005 -3.70179e-005 -2.13077e-005 -3.70179e-005      -0.99899    0.00103517
       13243.4   0.000252598    0.00023654 -2.13569e-005 -3.71395e-005 -2.13569e-005 -3.71395e-005     -0.998988    0.00103777
       13304.5   0.000253142   0.000237085 -2.14063e-005 -3.72616e-005 -2.14063e-005 -3.72616e-005     -0.998986    0.00104037
         13366   0.000253687   0.000237631 -2.14557e-005 -3.73842e-005 -2.14557e-005 -3.73842e-005     -0.998983    0.00104298
       13427.6   0.000254233   0.000238179 -2.15053e-005 -3.75072e-005 -2.15053e-005 -3.75072e-005     -0.998981    0.00104559
       13489.6   0.000254781   0.000238728  -2.1555e-005 -3.76306e-005  -2.1555e-005 -3.76306e-005     -0.998979    0.00104822
       13551.9    0.00025533   0.000239278 -2.16048e-005 -3.77545e-005 -2.16048e-005 -3.77545e-005     -0.998977    0.00105085
       13614.4    0.00025588   0.000239829 -2.16548e-005 -3.78788e-005 -2.16548e-005 -3.78788e-005     -0.998975    0.00105349
       13677.3   0.000256431   0.000240381 -2.17048e-005 -3.80037e-005 -2.17048e-005 -3.80037e-005     -0.998972    0.00105613
       13740.4   0.000256984   0.000240935  -2.1755e-005 -3.81289e-005  -2.1755e-005 -3.81289e-005      -0.99897    0.00105878
       13803.8   0.000257538    0.00024149 -2.18053e-005 -3.82547e-005 -2.18053e-005 -3.82547e-005     -0.998968    0.00106144
       13867.6   0.000258093   0.000242047 -2.18556e-005 -3.83809e-005 -2.18556e-005 -3.83809e-005     -0.998966    0.00106411
       13931.6   0.000258649   0.000242604 -2.19062e-005 -3.85075e-005 -2.19062e-005 -3.85075e-005     -0.998963    0.00106678
       13995.9   0.000259207   0.000243163 -2.19568e-005 -3.86347e-005 -2.19568e-005 -3.86347e-005     -0.998961    0.00106946
       14060.5   0.000259766   0.000243723 -2.20075e-005 -3.87623e-005 -2.20075e-005 -3.87623e-005     -0.998959    0.00107215
       14125.4   0.000260326   0.000244285 -2.20584e-005 -3.88903e-005 -2.20584e-005 -3.88903e-005     -0.998957    0.00107484
       14190.6   0.000260888   0.000244848 -2.21094e-005 -3.90189e-005 -2.21094e-005 -3.90189e-005     -0.998954    0.00107755
       14256.1    0.00026145   0.000245412 -2.21605e-005 -3.91479e-005 -2.21605e-005 -3.91479e-005     -0.998952    0.00108025
       14321.9   0.000262015   0.000245977 -2.22117e-005 -3.92774e-005 -2.22117e-005 -3.92774e-005      -0.99895    0.00108297
         14388    0.00026258   0.000246544 -2.22631e-005 -3.94074e-005 -2.22631e-005 -3.94074e-005     -0.998948    0.00108569
       14454.4   0.000263147   0.000247112 -2.23145e-005 -3.95378e-005 -2.23145e-005 -3.95378e-005     -0.998945    0.00108843
       14521.1   0.000263715   0.000247681 -2.23661e-005 -3.96688e-005 -2.23661e-005 -3.96688e-005     -0.998943    0.00109116
       14588.1   0.000264284   0.000248252 -2.24178e-005 -3.98002e-005 -2.24178e-005 -3.98002e-005     -0.998941    0.00109391
       14655.5   0.000264855   0.000248824 -2.24696e-005 -3.99321e-005 -2.24696e-005 -3.99321e-005     -0.998939    0.00109666
       14723.1   0.000265427   0.000249397 -2.25216e-005 -4.00645e-005 -2.25216e-005 -4.00645e-005     -0.998936    0.00109942
       14791.1      0.000266   0.000249972 -2.25736e-005 -4.01974e-005 -2.25736e-005 -4.01974e-005     -0.998934    0.00110219
       14859.4   0.000266575   0.000250547 -2.26258e-005 -4.03308e-005 -2.26258e-005 -4.03308e-005     -0.998932    0.00110497
       14927.9   0.000267151   0.000251125 -2.26781e-005 -4.04647e-005 -2.26781e-005 -4.04647e-005     -0.998929    0.00110775
       14996.8   0.000267728   0.000251703 -2.27305e-005 -4.05991e-005 -2.27305e-005 -4.05991e-005     -0.998927    0.00111054
       15066.1   0.000268306   0.000252283 -2.27831e-005  -4.0734e-005 -2.27831e-005  -4.0734e-005     -0.998925    0.00111334
       15135.6   0.000268886   0.000252864 -2.28357e-005 -4.08694e-005 -2.28357e-005 -4.08694e-005     -0.998922    0.00111615
       15205.5   0.000269467   0.000253447 -2.28885e-005 -4.10052e-005 -2.28885e-005 -4.10052e-005      -0.99892    0.00111896
       15275.7    0.00027005   0.000254031 -2.29415e-005 -4.11416e-005 -2.29415e-005 -4.11416e-005     -0.998918    0.00112178
       15346.2   0.000270634   0.000254616 -2.29945e-005 -4.12785e-005 -2.29945e-005 -4.12785e-005     -0.998915    0.00112461
         15417   0.000271219   0.000255202 -2.30477e-005 -4.14159e-005 -2.30477e-005 -4.14159e-005     -0.998913    0.00112744
       15488.2   0.000271806    0.00025579 -2.31009e-005 -4.15539e-005 -2.31009e-005 -4.15539e-005     -0.998911    0.00113029
       15559.7   0.000272394    0.00025638 -2.31543e-005 -4.16923e-005 -2.31543e-005 -4.16923e-005     -0.998908    0.00113314
       15631.5   0.000272983    0.00025697 -2.32079e-005 -4.18312e-005 -2.32079e-005 -4.18312e-005     -0.998906      0.001136
       15703.6   0.000273574   0.000257562 -2.32615e-005 -4.19707e-005 -2.32615e-005 -4.19707e-005     -0.998903    0.00113886
       15776.1   0.000274166   0.000258156 -2.33153e-005 -4.21107e-005 -2.33153e-005 -4.21107e-005     -0.998901    0.00114174
       15848.9   0.000274759    0.00025875 -2.33692e-005 -4.22512e-005 -2.33692e-005 -4.22512e-005     -0.998899    0.00114462
       15922.1   0.000275354   0.000259347 -2.34233e-005 -4.23922e-005 -2.34233e-005 -4.23922e-005     -0.998896    0.00114751
       15995.6    0.00027595   0.000259944 -2.34774e-005 -4.25338e-005 -2.34774e-005 -4.25338e-005     -0.998894    0.00115041
       16069.4   0.000276547   0.000260543 -2.35317e-005 -4.26759e-005 -2.35317e-005 -4.26759e-005     -0.998892    0.00115332
       16143.6   0.000277146   0.000261143 -2.35861e-005 -4.28185e-005 -2.35861e-005 -4.28185e-005     -0.998889    0.00115623
       16218.1   0.000277746   0.000261745 -2.36407e-005 -4.29617e-005 -2.36407e-005 -4.29617e-005     -0.998887    0.00115915
         16293   0.000278348   0.000262348 -2.36953e-005 -4.31053e-005 -2.36953e-005 -4.31053e-005     -0.998884    0.00116208
       16368.2   0.000278951   0.000262952 -2.37501e-005 -4.32496e-005 -2.37501e-005 -4.32496e-005     -0.998882    0.00116502
       16443.7   0.000279555   0.000263558  -2.3805e-005 -4.33943e-005  -2.3805e-005 -4.33943e-005     -0.998879    0.00116796
       16519.6   0.000280161   0.000264165 -2.38601e-005 -4.35396e-005 -2.38601e-005 -4.35396e-005     -0.998877    0.00117092
       16595.9   0.000280768   0.000264774 -2.39153e-005 -4.36855e-005 -2.39153e-005 -4.36855e-005     -0.998875    0.00117388
       16672.5   0.000281376   0.000265383 -2.39706e-005 -4.38319e-005 -2.39706e-005 -4.38319e-005     -0.998872    0.00117685
       16749.4   0.000281986   0.000265995  -2.4026e-005 -4.39788e-005  -2.4026e-005 -4.39788e-005      -0.99887    0.00117982
       16826.7   0.000282598   0.000266608 -2.40815e-005 -4.41263e-005 -2.40815e-005 -4.41263e-005     -0.998867    0.00118281
       16904.4    0.00028321   0.000267222 -2.41372e-005 -4.42743e-005 -2.41372e-005 -4.42743e-005     -0.998865     0.0011858
       16982.4   0.000283825   0.000267837 -2.41931e-005 -4.44229e-005 -2.41931e-005 -4.44229e-005     -0.998862    0.00118881
       17060.8    0.00028444   0.000268454  -2.4249e-005 -4.45721e-005  -2.4249e-005 -4.45721e-005      -0.99886    0.00119182
       17139.6   0.000285057   0.000269073 -2.43051e-005 -4.47218e-005 -2.43051e-005 -4.47218e-005     -0.998857    0.00119483
       17218.7   0.000285675   0.000269693 -2.43613e-005 -4.48721e-005 -2.43613e-005 -4.48721e-005     -0.998855    0.00119786
       17298.2   0.000286295   0.000270314 -2.44176e-005 -4.50229e-005 -2.44176e-005 -4.50229e-005     -0.998852    0.00120089
         17378   0.000286916   0.000270937 -2.44741e-005 -4.51743e-005 -2.44741e-005 -4.51743e-005      -0.99885    0.00120394
       17458.2   0.000287539   0.000271561 -2.45307e-005 -4.53263e-005 -2.45307e-005 -4.53263e-005     -0.998847    0.00120699
       17538.8   0.000288163   0.000272186 -2.45875e-005 -4.54789e-005 -2.45875e-005 -4.54789e-005     -0.998845    0.00121005
       17619.8   0.000288789   0.000272813 -2.46443e-005  -4.5632e-005 -2.46443e-005  -4.5632e-005     -0.998842    0.00121312
       17701.1   0.000289416   0.000273442 -2.47013e-005 -4.57857e-005 -2.47013e-005 -4.57857e-005      -0.99884    0.00121619
       17782.8   0.000290044   0.000274072 -2.47585e-005 -4.59399e-005 -2.47585e-005 -4.59399e-005     -0.998837    0.00121928
       17864.9   0.000290674   0.000274703 -2.48157e-005 -4.60948e-005 -2.48157e-005 -4.60948e-005     -0.998835    0.00122237
       17947.3   0.000291305   0.000275336 -2.48731e-005 -4.62502e-005 -2.48731e-005 -4.62502e-005     -0.998832    0.00122547
       18030.2   0.000291938    0.00027597 -2.49307e-005 -4.64062e-005 -2.49307e-005 -4.64062e-005      -0.99883    0.00122858
       18113.4   0.000292572   0.000276606 -2.49883e-005 -4.65628e-005 -2.49883e-005 -4.65628e-005     -0.998827     0.0012317
         18197   0.000293208   0.000277243 -2.50461e-005   -4.672e-005 -2.50461e-005   -4.672e-005     -0.998825    0.00123483
         18281   0.000293845   0.000277882 -2.51041e-005 -4.68778e-005 -2.51041e-005 -4.68778e-005     -0.998822    0.00123796
       18365.4   0.000294483   0.000278522 -2.51621e-005 -4.70362e-005 -2.51621e-005 -4.70362e-005     -0.998819     0.0012411
       18450.2   0.000295123   0.000279164 -2.52204e-005 -4.71952e-005 -2.52204e-005 -4.71952e-005     -0.998817    0.00124426
       18535.3   0.000295765   0.000279807 -2.52787e-005 -4.73548e-005 -2.52787e-005 -4.73548e-005     -0.998814    0.00124742
       18620.9   0.000296408   0.000280451 -2.53372e-005 -4.75149e-005 -2.53372e-005 -4.75149e-005     -0.998812    0.00125059
       18706.8   0.000297052   0.000281097 -2.53958e-005 -4.76757e-005 -2.53958e-005 -4.76757e-005     -0.998809    0.00125377
       18793.2   0.000297698   0.000281745 -2.54545e-005 -4.78371e-005 -2.54545e-005 -4.78371e-005     -0.998807    0.00125695
       18879.9   0.000298346   0.000282394 -2.55134e-005 -4.79991e-005 -2.55134e-005 -4.79991e-005     -0.998804    0.00126015
       18967.1   0.000298994   0.000283044 -2.55725e-005 -4.81617e-005 -2.55725e-005 -4.81617e-005     -0.998801    0.00126335
       19054.6   0.000299645   0.000283696 -2.56316e-005  -4.8325e-005 -2.56316e-005  -4.8325e-005     -0.998799    0.00126657
       19142.6   0.000300297    0.00028435 -2.56909e-005 -4.84888e-005 -2.56909e-005 -4.84888e-005     -0.998796    0.00126979
       19230.9    0.00030095   0.000285005 -2.57504e-005 -4.86533e-005 -2.57504e-005 -4.86533e-005     -0.998794    0.00127302
       19319.7   0.000301605   0.000285661 -2.58099e-005 -4.88184e-005 -2.58099e-005 -4.88184e-005     -0.998791    0.00127626
       19408.9   0.000302261   0.000286319 -2.58697e-005 -4.89841e-005 -2.58697e-005 -4.89841e-005     -0.998788    0.00127951
       19498.4   0.000302919   0.000286979 -2.59295e-005 -4.91504e-005 -2.59295e-005 -4.91504e-005     -0.998786    0.00128276
       19588.4   0.000303579    0.00028764 -2.59895e-005 -4.93174e-005 -2.59895e-005 -4.93174e-005     -0.998783    0.00128603
       19678.9    0.00030424   0.000288303 -2.60497e-005  -4.9485e-005 -2.60497e-005  -4.9485e-005      -0.99878    0.00128931
       19769.7   0.000304902   0.000288967 -2.61099e-005 -4.96532e-005 -2.61099e-005 -4.96532e-005     -0.998778    0.00129259
       19860.9   0.000305566   0.000289632 -2.61703e-005 -4.98221e-005 -2.61703e-005 -4.98221e-005     -0.998775    0.00129588
       19952.6   0.000306231     0.0002903 -2.62309e-005 -4.99916e-005 -2.62309e-005 -4.99916e-005     -0.998772    0.00129919
       20044.7   0.000306898   0.000290968 -2.62916e-005 -5.01617e-005 -2.62916e-005 -5.01617e-005      -0.99877     0.0013025
       20137.2   0.000307567   0.000291639 -2.63524e-005 -5.03325e-005 -2.63524e-005 -5.03325e-005     -0.998767    0.00130582
       20230.2   0.000308237    0.00029231 -2.64134e-005  -5.0504e-005 -2.64134e-005  -5.0504e-005     -0.998764    0.00130915
       20323.6   0.000308909   0.000292984 -2.64746e-005 -5.06761e-005 -2.64746e-005 -5.06761e-005     -0.998762    0.00131249
